Time Stamp,ID,Extended,Dir,Bus,LEN,D1,D2,D3,D4,D5,D6,D7,D8
224244895,00000601,false,Rx,0,8,42,53,4D,20,52,30,00,40,
224273079,00000609,false,Rx,0,8,43,53,42,2D,52,32,00,41,
224376831,00000701,false,Rx,0,8,56,49,4F,2D,52,34,00,60,
226632750,00000380,false,Rx,0,7,02,00,02,00,E0,00,00,00,
227536110,00000380,false,Rx,0,6,09,46,00,00,00,01,00,00,
227635682,00000380,false,Rx,0,7,02,00,02,00,00,00,03,00,
228539326,00000380,false,Rx,0,6,09,46,00,00,00,01,00,00,
228638945,00000380,false,Rx,0,7,02,00,02,00,00,00,07,00,
229542499,00000380,false,Rx,0,6,09,46,00,00,00,01,00,00,
229642096,00000380,false,Rx,0,7,02,00,02,00,00,00,0B,00,
230545711,00000380,false,Rx,0,6,09,46,00,00,00,01,00,00,
230645342,00000380,false,Rx,0,7,02,00,02,00,00,00,0F,00,
230915048,000000D8,false,Rx,0,6,A0,80,00,A0,80,00,00,00,
231548830,00000380,false,Rx,0,6,09,46,00,00,00,01,00,00,
231648485,00000380,false,Rx,0,7,02,00,02,00,00,00,13,00,
317275941,000000A0,false,Rx,0,6,A0,80,00,9F,80,01,00,00,
317279502,00000000,false,Rx,0,8,00,04,00,00,00,00,00,00,
317280435,00000098,false,Rx,0,6,A0,80,00,9F,80,02,00,00,
317281466,000000A8,false,Rx,0,6,A0,80,00,9F,80,08,00,00,
317283761,000000D0,false,Rx,0,6,A0,80,00,9F,80,04,00,00,
317285527,000000C8,false,Rx,0,6,A0,80,01,A0,80,00,00,00,
317287146,00000088,false,Rx,0,6,A0,80,02,A0,80,00,00,00,
317290737,000000C0,false,Rx,0,6,A0,80,00,9F,80,06,00,00,
317292409,000000B8,false,Rx,0,6,A0,80,05,9F,80,08,00,00,
317293591,00000090,false,Rx,0,6,28,80,00,9F,80,05,00,00,
317294758,000000B0,false,Rx,0,6,A0,80,01,A0,80,00,00,00,
317343872,00000601,false,Rx,0,8,42,53,4D,20,52,30,00,40,
317371925,00000609,false,Rx,0,8,43,53,42,2D,52,32,00,41,
317476103,00000701,false,Rx,0,8,56,49,4F,2D,52,34,00,60,
319732022,00000380,false,Rx,0,7,02,00,02,00,F0,00,00,00,
320635448,00000380,false,Rx,0,6,09,46,00,00,00,01,00,00,
320735307,00000380,false,Rx,0,7,02,00,02,00,00,00,03,00,
321638610,00000380,false,Rx,0,6,09,46,00,00,00,01,00,00,
321738395,00000380,false,Rx,0,7,02,00,02,00,00,00,07,00,
322641795,00000380,false,Rx,0,6,09,46,00,00,00,01,00,00,
322741302,00000380,false,Rx,0,7,02,00,02,00,00,00,0B,00,
323645019,00000380,false,Rx,0,6,09,46,00,00,00,01,00,00,
323744573,00000380,false,Rx,0,7,02,00,02,00,00,00,0F,00,
324648167,00000380,false,Rx,0,6,09,46,00,00,00,01,00,00,
324747728,00000380,false,Rx,0,7,02,00,02,00,00,00,13,00,
325651373,00000380,false,Rx,0,6,09,46,00,00,00,01,00,00,
325751013,00000380,false,Rx,0,7,02,00,02,00,00,00,17,00,
326655525,00000380,false,Rx,0,6,09,46,00,00,00,01,00,00,
326754329,00000380,false,Rx,0,7,02,00,02,00,00,00,1B,00,
327657859,00000380,false,Rx,0,6,09,46,00,00,00,01,00,00,
327757299,00000380,false,Rx,0,7,02,00,02,00,00,00,1F,00,
328660938,00000380,false,Rx,0,6,09,46,00,00,00,01,00,00,
328760513,00000380,false,Rx,0,7,02,00,02,00,00,00,23,00,
329664343,00000380,false,Rx,0,6,09,46,00,00,00,01,00,00,
329763704,00000380,false,Rx,0,7,02,00,02,00,00,00,27,00,
330667297,00000380,false,Rx,0,6,09,46,00,00,00,01,00,00,
330766845,00000380,false,Rx,0,7,02,00,02,00,00,00,2B,00,
331670509,00000380,false,Rx,0,6,09,46,00,00,00,01,00,00,
331770080,00000380,false,Rx,0,7,02,00,02,00,00,00,2F,00,
332673695,00000380,false,Rx,0,6,09,46,00,00,00,01,00,00,
332773254,00000380,false,Rx,0,7,02,00,02,00,00,00,33,00,
333676882,00000380,false,Rx,0,6,09,46,00,00,00,01,00,00,
333776396,00000380,false,Rx,0,7,02,00,02,00,00,00,37,00,
334680078,00000380,false,Rx,0,6,09,46,00,00,00,01,00,00,
334779609,00000380,false,Rx,0,7,02,00,02,00,00,00,3B,00,
335683243,00000380,false,Rx,0,6,09,46,00,00,00,01,00,00,
335782853,00000380,false,Rx,0,7,02,00,02,00,00,00,3F,00,
336686423,00000380,false,Rx,0,6,09,46,00,00,00,01,00,00,
336786173,00000380,false,Rx,0,7,02,00,02,00,00,00,43,00,
337689615,00000380,false,Rx,0,6,09,46,00,00,00,01,00,00,
337789176,00000380,false,Rx,0,7,02,00,02,00,00,00,47,00,
338692815,00000380,false,Rx,0,6,09,46,00,00,00,01,00,00,
338792354,00000380,false,Rx,0,7,02,00,02,00,00,00,4B,00,
339695970,00000380,false,Rx,0,6,09,46,00,00,00,01,00,00,
339795547,00000380,false,Rx,0,7,02,00,02,00,00,00,4F,00,
340699196,00000380,false,Rx,0,6,09,46,00,00,00,01,00,00,
340798908,00000380,false,Rx,0,7,02,00,02,00,00,00,53,00,
341702367,00000380,false,Rx,0,6,09,46,00,00,00,01,00,00,
341801959,00000380,false,Rx,0,7,02,00,02,00,00,00,57,00,
342705644,00000380,false,Rx,0,6,09,46,00,00,00,01,00,00,
342805115,00000380,false,Rx,0,7,02,00,02,00,00,00,5B,00,
343708750,00000380,false,Rx,0,6,09,46,00,00,00,01,00,00,
343808310,00000380,false,Rx,0,7,02,00,02,00,00,00,5F,00,
344711883,00000380,false,Rx,0,6,09,46,00,00,00,01,00,00,
344811500,00000380,false,Rx,0,7,02,00,02,00,00,00,63,00,
345715136,00000380,false,Rx,0,6,09,46,00,00,00,01,00,00,
345814720,00000380,false,Rx,0,7,02,00,02,00,00,00,67,00,
346718294,00000380,false,Rx,0,6,09,46,00,00,00,01,00,00,
346817875,00000380,false,Rx,0,7,02,00,02,00,00,00,6B,00,
347721481,00000380,false,Rx,0,6,09,46,00,00,00,01,00,00,
347821061,00000380,false,Rx,0,7,02,00,02,00,00,00,6F,00,
348724675,00000380,false,Rx,0,6,09,46,00,00,00,01,00,00,
348824337,00000380,false,Rx,0,7,02,00,02,00,00,00,73,00,
349727877,00000380,false,Rx,0,6,09,46,00,00,00,01,00,00,
349827403,00000380,false,Rx,0,7,02,00,02,00,00,00,77,00,
350731041,00000380,false,Rx,0,6,09,46,00,00,00,01,00,00,
350830581,00000380,false,Rx,0,7,02,00,02,00,00,00,7B,00,
350918960,000000D8,false,Rx,0,6,A0,80,00,A0,80,00,00,00,
351734215,00000380,false,Rx,0,6,09,46,00,00,00,01,00,00,
351833727,00000380,false,Rx,0,7,02,00,02,00,00,00,7F,00,
351920208,0000000A,false,Rx,0,2,23,00,00,00,00,00,00,00,
351939117,0000030A,false,Rx,0,6,23,00,E6,00,00,00,00,00,
352737394,00000380,false,Rx,0,6,09,46,00,00,00,01,00,00,
352836974,00000380,false,Rx,0,7,02,00,02,00,00,00,83,00,
353028025,000000D0,false,Rx,0,6,A0,80,00,9F,80,04,00,00,
353740616,00000380,false,Rx,0,6,09,46,00,00,00,01,00,00,
353840179,00000380,false,Rx,0,7,02,00,02,00,00,00,87,00,
353955405,000000C8,false,Rx,0,6,A0,80,01,A0,80,00,00,00,
354743765,00000380,false,Rx,0,6,09,46,00,00,00,01,00,00,
354843461,00000380,false,Rx,0,7,02,00,02,00,00,00,8B,00,
355430411,000000C0,false,Rx,0,6,A0,80,00,9F,80,06,00,00,
355476259,000000B8,false,Rx,0,6,A0,80,05,9F,80,08,00,00,
355746981,00000380,false,Rx,0,6,09,46,00,00,00,01,00,00,
355846551,00000380,false,Rx,0,7,02,00,02,00,00,00,8F,00,
356750319,00000380,false,Rx,0,6,09,46,00,00,00,01,00,00,
356849719,00000380,false,Rx,0,7,02,00,02,00,00,00,93,00,
357427766,000000B0,false,Rx,0,6,A0,80,01,A0,80,00,00,00,
357753335,00000380,false,Rx,0,6,09,46,00,00,00,01,00,00,
357852970,00000380,false,Rx,0,7,02,00,02,00,00,00,97,00,
358468565,000000A8,false,Rx,0,6,A0,80,00,9F,80,08,00,00,
358756512,00000380,false,Rx,0,6,09,46,00,00,00,01,00,00,
358856116,00000380,false,Rx,0,7,02,00,02,00,00,00,9B,00,
359331539,000000A0,false,Rx,0,6,A0,80,00,9F,80,01,00,00,
359759730,00000380,false,Rx,0,6,09,46,00,00,00,01,00,00,
359859284,00000380,false,Rx,0,7,02,00,02,00,00,00,9F,00,
360483832,00000098,false,Rx,0,6,A0,80,00,9F,80,02,00,00,
360762975,00000380,false,Rx,0,6,09,46,00,00,00,01,00,00,
360862497,00000380,false,Rx,0,7,02,00,02,00,00,00,A3,00,
361022271,00000090,false,Rx,0,6,28,80,00,9F,80,05,00,00,
361439417,00000088,false,Rx,0,6,A0,80,02,A0,80,00,00,00,
361766081,00000380,false,Rx,0,6,09,46,00,00,00,01,00,00,
361865644,00000380,false,Rx,0,7,02,00,02,00,00,00,A7,00,
362769294,00000380,false,Rx,0,6,09,46,00,00,00,01,00,00,
362868834,00000380,false,Rx,0,7,02,00,02,00,00,00,AB,00,
363772487,00000380,false,Rx,0,6,09,46,00,00,00,01,00,00,
363872009,00000380,false,Rx,0,7,02,00,02,00,00,00,AF,00,
364775674,00000380,false,Rx,0,6,09,46,00,00,00,01,00,00,
364875226,00000380,false,Rx,0,7,02,00,02,00,00,00,B3,00,
365778951,00000380,false,Rx,0,6,09,46,00,00,00,01,00,00,
365878390,00000380,false,Rx,0,7,02,00,02,00,00,00,B7,00,
366782118,00000380,false,Rx,0,6,09,46,00,00,00,01,00,00,
366881571,00000380,false,Rx,0,7,02,00,02,00,00,00,BB,00,
367785244,00000380,false,Rx,0,6,09,46,00,00,00,01,00,00,
367884728,00000380,false,Rx,0,7,02,00,02,00,00,00,BF,00,
368788377,00000380,false,Rx,0,6,09,46,00,00,00,01,00,00,
368887902,00000380,false,Rx,0,7,02,00,02,00,00,00,C3,00,
369791647,00000380,false,Rx,0,6,09,46,00,00,00,01,00,00,
369891099,00000380,false,Rx,0,7,02,00,02,00,00,00,C7,00,
370794808,00000380,false,Rx,0,6,09,46,00,00,00,01,00,00,
370894304,00000380,false,Rx,0,7,02,00,02,00,00,00,CB,00,
371332655,00000701,false,Rx,0,8,56,49,4F,2D,52,34,00,60,
373337605,00000300,false,Rx,0,1,00,00,00,00,00,00,00,00,
373354943,00000006,false,Rx,0,3,1E,00,00,00,00,00,00,00,
373355939,00000006,false,Rx,0,3,1E,01,00,00,00,00,00,00,
373356971,00000312,false,Rx,0,3,1E,00,00,00,00,00,00,00,
373356972,00000006,false,Rx,0,3,1E,02,00,00,00,00,00,00,
373357980,00000312,false,Rx,0,3,1E,01,00,00,00,00,00,00,
373358977,00000006,false,Rx,0,3,1E,03,00,00,00,00,00,00,
373358978,00000312,false,Rx,0,3,1E,02,00,00,00,00,00,00,
373359980,00000006,false,Rx,0,2,1F,00,00,00,00,00,00,00,
373359981,00000312,false,Rx,0,3,1E,03,00,00,00,00,00,00,
373361004,00000006,false,Rx,0,4,1B,00,01,01,00,00,00,00,
373361931,00000312,false,Rx,0,8,1F,00,01,14,00,00,0E,00,
373362925,00000006,false,Rx,0,3,1E,00,00,00,00,00,00,00,
373362927,0000031A,false,Rx,0,3,1E,00,00,00,00,00,00,00,
373363955,00000006,false,Rx,0,3,1E,01,01,00,00,00,00,00,
373363956,00000312,false,Rx,0,3,1E,00,00,00,00,00,00,00,
373364954,00000006,false,Rx,0,3,1E,02,01,00,00,00,00,00,
373365987,00000092,false,Rx,0,8,00,80,C8,80,FC,84,04,10,
373366980,00000006,false,Rx,0,3,1E,03,00,00,00,00,00,00,
373366981,00000312,false,Rx,0,3,1E,01,01,00,00,00,00,00,
373367986,00000006,false,Rx,0,6,01,00,14,00,00,00,00,00,
373369009,00000312,false,Rx,0,3,1E,02,01,00,00,00,00,00,
373369010,00000006,false,Rx,0,5,26,00,04,06,05,00,00,00,
373370009,0000031A,false,Rx,0,3,1E,01,00,00,00,00,00,00,
373371034,0000031A,false,Rx,0,3,1E,02,00,00,00,00,00,00,
373371036,0000031A,false,Rx,0,3,1E,03,00,00,00,00,00,00,
373372039,00000322,false,Rx,0,3,1E,00,00,00,00,00,00,00,
373373035,0000031A,false,Rx,0,8,1F,00,01,14,00,00,0E,00,
373373036,0000031A,false,Rx,0,3,1E,00,00,00,00,00,00,00,
373374053,0000031A,false,Rx,0,3,1E,01,01,00,00,00,00,00,
373375054,0000009A,false,Rx,0,8,78,80,A0,80,9C,85,04,00,
373375057,0000031A,false,Rx,0,3,1E,02,01,00,00,00,00,00,
373376124,00000322,false,Rx,0,3,1E,01,00,00,00,00,00,00,
373377088,0000032A,false,Rx,0,3,1E,00,00,00,00,00,00,00,
373377089,00000322,false,Rx,0,3,1E,02,00,00,00,00,00,00,
373378155,0000032A,false,Rx,0,3,1E,01,00,00,00,00,00,00,
373378156,00000322,false,Rx,0,3,1E,03,00,00,00,00,00,00,
373379178,0000033A,false,Rx,0,3,1E,00,00,00,00,00,00,00,
373380178,00000322,false,Rx,0,8,1F,00,01,14,00,00,0E,00,
373381178,0000033A,false,Rx,0,3,1E,01,00,00,00,00,00,00,
373381180,00000322,false,Rx,0,3,1E,00,00,00,00,00,00,00,
373382214,0000034A,false,Rx,0,3,1E,00,00,00,00,00,00,00,
373383182,000000A2,false,Rx,0,8,78,80,C8,80,9D,85,04,40,
373383183,0000034A,false,Rx,0,3,1E,01,00,00,00,00,00,00,
373384183,00000322,false,Rx,0,3,1E,01,01,00,00,00,00,00,
373384185,00000352,false,Rx,0,3,1E,00,00,00,00,00,00,00,
373385203,00000322,false,Rx,0,3,1E,02,01,00,00,00,00,00,
373386231,00000352,false,Rx,0,3,1E,01,00,00,00,00,00,00,
373386233,00000352,false,Rx,0,3,1E,02,00,00,00,00,00,00,
373387232,00000352,false,Rx,0,3,1E,03,00,00,00,00,00,00,
373388258,00000352,false,Rx,0,8,1F,00,01,14,00,00,0E,00,
373388259,00000352,false,Rx,0,3,1E,00,00,00,00,00,00,00,
373389242,00000352,false,Rx,0,3,1E,01,01,00,00,00,00,00,
373390285,000000D2,false,Rx,0,8,78,80,C8,80,9C,85,04,20,
373391302,00000352,false,Rx,0,3,1E,02,01,00,00,00,00,00,
373393833,00000006,false,Rx,0,8,21,52,45,32,42,31,37,41,
373395294,00000006,false,Rx,0,8,22,33,30,30,30,33,32,36,
373396469,00000006,false,Rx,0,2,0E,00,00,00,00,00,00,00,
373400567,00000094,false,Rx,0,8,C1,18,2B,19,A0,63,02,23,
373401571,00000312,false,Rx,0,3,1E,03,00,00,00,00,00,00,
373402602,00000312,false,Rx,0,4,0E,00,00,82,00,00,00,00,
373407326,0000009C,false,Rx,0,8,BF,18,07,19,7A,63,02,21,
373408309,0000031A,false,Rx,0,3,1E,03,00,00,00,00,00,00,
373417314,000000A4,false,Rx,0,8,B6,18,0D,19,7B,63,02,21,
373418376,00000322,false,Rx,0,3,1E,03,00,00,00,00,00,00,
373419405,00000322,false,Rx,0,4,0E,00,00,82,00,00,00,00,
373420381,0000035A,false,Rx,0,3,1E,00,00,00,00,00,00,00,
373420382,0000035A,false,Rx,0,3,1E,01,00,00,00,00,00,00,
373421383,0000035A,false,Rx,0,3,1E,02,00,00,00,00,00,00,
373421384,0000035A,false,Rx,0,3,1E,03,00,00,00,00,00,00,
373422420,0000035A,false,Rx,0,8,1F,00,01,14,00,00,0E,00,
373423408,000000D4,false,Rx,0,8,B7,18,2A,19,AC,63,02,23,
373424417,00000352,false,Rx,0,3,1E,03,00,00,00,00,00,00,
373424419,0000035A,false,Rx,0,3,1E,00,00,00,00,00,00,00,
373425433,00000352,false,Rx,0,4,0E,00,00,82,00,00,00,00,
373426445,000000DA,false,Rx,0,8,78,80,C7,80,9A,85,04,70,
373427454,0000035A,false,Rx,0,3,1E,01,01,00,00,00,00,00,
373428454,00000332,false,Rx,0,3,1E,00,00,00,00,00,00,00,
373428456,00000332,false,Rx,0,3,1E,01,00,00,00,00,00,00,
373429477,00000332,false,Rx,0,3,1E,02,00,00,00,00,00,00,
373430469,00000332,false,Rx,0,3,1E,03,00,00,00,00,00,00,
373431498,000000D2,false,Rx,0,8,78,80,C8,80,9C,85,04,20,
373431499,00000332,false,Rx,0,8,1F,00,01,14,00,00,0E,00,
373432491,00000332,false,Rx,0,3,1E,00,00,00,00,00,00,00,
373433515,00000332,false,Rx,0,3,1E,01,01,00,00,00,00,00,
373434518,000000B2,false,Rx,0,8,78,80,A0,80,9E,85,04,00,
373434520,00000342,false,Rx,0,3,1E,00,00,00,00,00,00,00,
373435522,00000342,false,Rx,0,3,1E,01,00,00,00,00,00,00,
373435523,00000342,false,Rx,0,3,1E,02,00,00,00,00,00,00,
373436533,00000342,false,Rx,0,3,1E,03,00,00,00,00,00,00,
373437544,00000342,false,Rx,0,8,1F,00,01,14,00,00,0E,00,
373438552,00000342,false,Rx,0,3,1E,00,00,00,00,00,00,00,
373438553,00000342,false,Rx,0,3,1E,01,01,00,00,00,00,00,
373439569,000000C2,false,Rx,0,8,78,80,C8,80,9E,85,04,20,
373440558,0000030A,false,Rx,0,3,1E,00,00,00,00,00,00,00,
373440559,0000030A,false,Rx,0,3,1E,01,00,00,00,00,00,00,
373441569,0000030A,false,Rx,0,3,1E,02,00,00,00,00,00,00,
373441571,0000030A,false,Rx,0,3,1E,03,00,00,00,00,00,00,
373442559,0000030A,false,Rx,0,8,1F,00,01,14,00,00,0E,00,
373443596,0000030A,false,Rx,0,3,1E,00,00,00,00,00,00,00,
373444594,0000030A,false,Rx,0,3,1E,01,01,00,00,00,00,00,
373445601,0000008A,false,Rx,0,8,78,80,A0,80,9D,85,04,00,
373455308,00000200,false,Rx,0,1,04,00,00,00,00,00,00,00,
373456494,00000280,false,Rx,0,8,04,00,B0,00,00,00,00,00,
373463404,000000D4,false,Rx,0,8,B8,18,25,19,A9,63,02,23,
373475208,0000032A,false,Rx,0,3,1E,02,00,00,00,00,00,00,
373476220,0000032A,false,Rx,0,3,1E,03,00,00,00,00,00,00,
373477233,0000032A,false,Rx,0,8,1F,00,01,14,00,00,0E,00,
373478219,0000032A,false,Rx,0,3,1E,00,00,00,00,00,00,00,
373478221,0000032A,false,Rx,0,3,1E,01,01,00,00,00,00,00,
373479225,000000AA,false,Rx,0,8,78,80,C7,80,9C,85,04,50,
373480249,0000032A,false,Rx,0,3,1E,02,01,00,00,00,00,00,
373480251,0000033A,false,Rx,0,3,1E,02,00,00,00,00,00,00,
373481258,0000033A,false,Rx,0,3,1E,03,00,00,00,00,00,00,
373482283,0000034A,false,Rx,0,3,1E,02,00,00,00,00,00,00,
373483303,0000033A,false,Rx,0,8,1F,00,01,14,00,00,0E,00,
373483305,0000033A,false,Rx,0,3,1E,00,00,00,00,00,00,00,
373484311,0000033A,false,Rx,0,3,1E,01,01,00,00,00,00,00,
373485288,000000BA,false,Rx,0,8,78,80,A0,80,9D,85,04,00,
373485289,0000033A,false,Rx,0,3,1E,02,01,00,00,00,00,00,
373486285,0000034A,false,Rx,0,3,1E,03,00,00,00,00,00,00,
373487292,0000034A,false,Rx,0,8,1F,00,01,14,00,00,0E,00,
373487293,0000034A,false,Rx,0,3,1E,00,00,00,00,00,00,00,
373488307,0000034A,false,Rx,0,3,1E,01,01,00,00,00,00,00,
373489330,000000CA,false,Rx,0,8,78,80,A0,80,9F,85,04,00,
373490352,0000034A,false,Rx,0,3,1E,02,01,00,00,00,00,00,
373506019,0000009A,false,Rx,0,8,78,80,A0,80,9C,85,04,00,
373511821,000000AC,false,Rx,0,8,B7,18,13,19,73,63,02,23,
373512820,0000032A,false,Rx,0,3,1E,03,00,00,00,00,00,00,
373517258,000000BC,false,Rx,0,8,B5,18,20,19,9D,63,02,21,
373518269,0000033A,false,Rx,0,3,1E,03,00,00,00,00,00,00,
373521650,000000CC,false,Rx,0,8,DE,18,25,19,DF,63,02,20,
373522659,0000034A,false,Rx,0,3,1E,03,00,00,00,00,00,00,
373538844,0000009C,false,Rx,0,8,C1,18,09,19,83,63,02,21,
373539914,0000031A,false,Rx,0,4,0E,00,00,82,00,00,00,00,
373716950,00000380,false,Rx,0,7,02,00,02,00,00,00,00,00,
373830165,000000B2,false,Rx,0,8,78,80,A0,80,9E,85,04,00,
373832245,000000A2,false,Rx,0,8,78,80,A0,80,9D,85,04,00,
373833240,000000C2,false,Rx,0,8,78,80,C8,80,9E,85,04,20,
373864962,000000A4,false,Rx,0,8,B8,18,0E,19,7D,63,02,21,
373870781,000000AA,false,Rx,0,8,78,80,C7,80,9C,85,04,50,
373903695,000000AC,false,Rx,0,8,B8,18,17,19,78,63,02,23,
373919947,000000DA,false,Rx,0,8,78,80,C7,80,9A,85,04,10,
373939863,0000008A,false,Rx,0,8,78,80,C8,80,9D,85,04,20,
373956058,000000CA,false,Rx,0,8,78,80,C8,80,9F,85,04,10,
373977442,000000BA,false,Rx,0,8,78,80,A0,80,9D,85,04,00,
373988845,000000CC,false,Rx,0,8,DE,18,25,19,E2,63,02,20,
373999484,00000092,false,Rx,0,8,00,80,C8,80,FC,84,04,10,
374010323,000000BC,false,Rx,0,8,B6,18,22,19,A1,63,02,21,
374028790,000000D2,false,Rx,0,8,78,80,C8,80,9C,85,04,20,
374032463,00000094,false,Rx,0,8,C2,18,28,19,9E,63,02,23,
374061718,000000D4,false,Rx,0,8,B6,18,29,19,AB,63,02,23,
374137524,0000009A,false,Rx,0,8,78,80,A0,80,9C,85,04,00,
374170391,0000009C,false,Rx,0,8,C1,18,0B,19,84,63,02,21,
374233930,000000A2,false,Rx,0,8,78,80,A0,80,9D,85,04,00,
374266770,000000A4,false,Rx,0,8,B8,18,0E,19,7E,63,02,21,
374321824,000000DA,false,Rx,0,8,78,80,C7,80,9A,85,04,10,
374330143,000000B2,false,Rx,0,8,78,80,A0,80,9E,85,04,00,
374332745,000000C2,false,Rx,0,8,78,80,C8,80,9E,85,04,10,
374341742,0000008A,false,Rx,0,8,78,80,C8,80,9D,85,04,20,
374357866,000000CA,false,Rx,0,8,78,80,C8,80,9F,85,04,10,
374370807,000000AA,false,Rx,0,8,78,80,A0,80,9C,85,04,00,
374379270,000000BA,false,Rx,0,8,78,80,A0,80,9D,85,04,00,
374390711,000000CC,false,Rx,0,8,DE,18,21,19,DD,63,02,20,
374401193,00000092,false,Rx,0,8,00,80,C8,80,FC,84,04,10,
374403663,000000AC,false,Rx,0,8,B9,18,10,19,6A,63,02,23,
374412094,000000BC,false,Rx,0,8,B5,18,20,19,9F,63,02,21,
374434107,00000094,false,Rx,0,8,C0,18,28,19,9A,63,02,23,
374528859,000000D2,false,Rx,0,8,78,80,C8,80,9C,85,04,20,
374539489,0000009A,false,Rx,0,8,78,80,A0,80,9C,85,04,00,
374561733,000000D4,false,Rx,0,8,B8,18,28,19,AC,63,02,23,
374572149,0000009C,false,Rx,0,8,C1,18,0B,19,86,63,02,21,
374620379,00000380,false,Rx,0,6,09,46,00,00,00,01,00,00,
374720011,00000380,false,Rx,0,7,02,00,02,00,00,00,03,00,
374733942,000000A2,false,Rx,0,8,78,80,A0,80,9D,85,04,00,
374766786,000000A4,false,Rx,0,8,B7,18,0F,19,81,63,02,21,
374830175,000000B2,false,Rx,0,8,78,80,A0,80,9E,85,04,00,
374841810,0000008A,false,Rx,0,8,78,80,C8,80,9D,85,04,31,
374870846,000000AA,false,Rx,0,8,78,80,A0,80,9C,85,04,00,
374879250,000000BA,false,Rx,0,8,78,80,A0,80,9D,85,04,00,
374890375,000000CC,false,Rx,0,8,DF,18,29,19,E6,63,02,20,
374901251,00000092,false,Rx,0,8,00,80,C8,80,24,85,04,10,
374903697,000000AC,false,Rx,0,8,B8,18,14,19,6F,63,02,23,
374912143,000000BC,false,Rx,0,8,B5,18,21,19,A0,63,02,21,
374919936,000000DA,false,Rx,0,8,78,80,A0,80,9A,85,04,00,
374930570,000000D2,false,Rx,0,8,78,80,C8,80,9C,85,04,20,
374931568,000000C2,false,Rx,0,8,78,80,C8,80,9E,85,04,20,
374934093,00000094,false,Rx,0,8,C1,18,28,19,9B,63,02,23,
374963445,000000D4,false,Rx,0,8,B8,18,27,19,AD,63,02,23,
374988918,000000CA,false,Rx,0,8,78,80,C8,80,9F,85,04,20,
375038843,0000010C,false,Rx,0,3,00,00,00,00,00,00,00,00,
375039821,0000009A,false,Rx,0,8,78,80,A0,80,9C,85,04,00,
375072218,0000009C,false,Rx,0,8,BE,18,08,19,7E,63,02,21,
375146206,00000200,false,Rx,0,6,11,01,00,0A,0A,01,00,00,
375147247,00000208,false,Rx,0,5,05,02,14,00,02,00,00,00,
375148250,00000280,false,Rx,0,6,11,01,00,0A,0A,01,00,00,
375202214,0000010C,false,Rx,0,3,00,00,00,00,00,00,00,00,
375203318,00000200,false,Rx,0,8,05,00,01,02,03,04,05,06,
375204405,00000200,false,Rx,0,8,07,00,01,02,03,04,05,06,
375205415,00000280,false,Rx,0,1,05,00,00,00,00,00,00,00,
375206395,00000208,false,Rx,0,8,03,00,01,02,03,04,05,06,
375207449,0000010C,false,Rx,0,3,00,00,00,00,00,00,00,00,
375208418,00000280,false,Rx,0,2,07,01,00,00,00,00,00,00,
375211614,00000200,false,Rx,0,8,05,00,01,02,03,04,05,06,
375212667,00000200,false,Rx,0,8,07,00,01,02,03,04,05,06,
375213717,00000208,false,Rx,0,8,03,00,01,02,03,04,05,06,
375214718,00000006,false,Rx,0,6,24,00,00,01,F0,00,00,00,
375215749,00000200,false,Rx,0,5,23,01,00,F0,00,00,00,00,
375216750,0000030A,false,Rx,0,8,24,00,00,02,40,02,FF,FF,
375217742,00000312,false,Rx,0,8,24,00,00,02,40,02,FF,FF,
375218739,0000031A,false,Rx,0,8,24,00,00,02,40,02,FF,FF,
375219742,00000322,false,Rx,0,8,24,00,00,02,40,02,FF,FF,
375220775,0000032A,false,Rx,0,8,24,00,00,02,40,02,FF,FF,
375221785,00000332,false,Rx,0,8,24,00,00,02,40,02,FF,FF,
375222791,0000033A,false,Rx,0,8,24,00,00,02,40,02,FF,FF,
375223792,00000342,false,Rx,0,8,24,00,00,02,40,02,FF,FF,
375224800,0000034A,false,Rx,0,8,24,00,00,02,40,02,FF,FF,
375225831,00000352,false,Rx,0,8,24,00,00,02,40,02,FF,FF,
375226823,0000000A,false,Rx,0,6,24,00,00,02,F0,00,00,00,
375227824,0000035A,false,Rx,0,8,24,00,00,02,40,02,FF,FF,
375228821,00000012,false,Rx,0,6,24,00,00,02,F0,00,00,00,
375228821,0000030A,false,Rx,0,8,24,00,0F,30,35,2D,31,30,
375229849,0000001A,false,Rx,0,6,24,00,00,02,F0,00,00,00,
375230850,00000312,false,Rx,0,8,24,00,0F,30,35,2D,31,30,
375231864,00000022,false,Rx,0,6,24,00,00,02,F0,00,00,00,
375232867,0000031A,false,Rx,0,8,24,00,0F,30,35,2D,31,30,
375233868,0000002A,false,Rx,0,6,24,00,00,02,F0,00,00,00,
375234868,00000322,false,Rx,0,8,24,00,0F,30,35,2D,31,30,
375234868,00000032,false,Rx,0,6,24,00,00,02,F0,00,00,00,
375235889,0000032A,false,Rx,0,8,24,00,0F,30,35,2D,31,30,
375236873,0000010C,false,Rx,0,3,00,00,00,00,00,00,00,00,
375237921,00000332,false,Rx,0,8,24,00,0F,30,35,2D,31,30,
375245117,0000003A,false,Rx,0,6,24,00,00,02,F0,00,00,00,
375246143,00000042,false,Rx,0,6,24,00,00,02,F0,00,00,00,
375247165,0000033A,false,Rx,0,8,24,00,0F,30,35,2D,31,30,
375248144,0000004A,false,Rx,0,6,24,00,00,02,F0,00,00,00,
375249183,00000342,false,Rx,0,8,24,00,0F,30,35,2D,31,30,
375250258,00000052,false,Rx,0,6,24,00,00,02,F0,00,00,00,
375251241,0000034A,false,Rx,0,8,24,00,0F,30,35,2D,31,30,
375252234,0000005A,false,Rx,0,6,24,00,00,02,F0,00,00,00,
375253248,00000352,false,Rx,0,8,24,00,0F,30,35,2D,31,30,
375253249,0000000A,false,Rx,0,6,24,00,06,02,F0,00,00,00,
375254247,0000035A,false,Rx,0,8,24,00,0F,30,35,2D,31,30,
375255247,00000012,false,Rx,0,6,24,00,06,02,F0,00,00,00,
375256255,0000030A,false,Rx,0,8,24,00,44,4E,2D,30,30,30,
375257241,0000001A,false,Rx,0,6,24,00,06,02,F0,00,00,00,
375258299,00000312,false,Rx,0,8,24,00,44,32,2D,30,30,30,
375259254,00000022,false,Rx,0,6,24,00,06,02,F0,00,00,00,
375259255,0000031A,false,Rx,0,8,24,00,44,4E,2D,30,30,30,
375260260,0000002A,false,Rx,0,6,24,00,06,02,F0,00,00,00,
375261274,00000032,false,Rx,0,6,24,00,06,02,F0,00,00,00,
375262310,0000032A,false,Rx,0,8,24,00,44,4E,2D,30,30,30,
375263352,0000003A,false,Rx,0,6,24,00,06,02,F0,00,00,00,
375264345,00000332,false,Rx,0,8,24,00,44,4E,2D,30,30,30,
375265348,00000042,false,Rx,0,6,24,00,06,02,F0,00,00,00,
375266345,0000033A,false,Rx,0,8,24,00,44,4E,2D,30,30,30,
375266346,0000004A,false,Rx,0,6,24,00,06,02,F0,00,00,00,
375267374,000000A4,false,Rx,0,8,B7,18,11,19,80,63,02,21,
375268368,00000052,false,Rx,0,6,24,00,06,02,F0,00,00,00,
375269369,00000342,false,Rx,0,8,24,00,44,32,2D,30,30,30,
375270452,0000005A,false,Rx,0,6,24,00,06,02,F0,00,00,00,
375271365,0000034A,false,Rx,0,8,24,00,44,4E,2D,30,30,30,
375272372,0000000A,false,Rx,0,6,24,00,0C,02,F0,00,00,00,
375273381,00000352,false,Rx,0,8,24,00,43,35,2D,30,30,30,
375273381,00000012,false,Rx,0,6,24,00,0C,02,F0,00,00,00,
375274375,0000030A,false,Rx,0,8,24,00,30,34,38,32,FF,FF,
375275395,0000001A,false,Rx,0,6,24,00,0C,02,F0,00,00,00,
375276392,00000312,false,Rx,0,8,24,00,30,33,34,32,FF,FF,
375277449,0000002A,false,Rx,0,6,24,00,0C,02,F0,00,00,00,
375278535,0000031A,false,Rx,0,8,24,00,30,34,37,37,FF,FF,
375279543,00000032,false,Rx,0,6,24,00,0C,02,F0,00,00,00,
375280500,0000032A,false,Rx,0,8,24,00,30,33,35,39,FF,FF,
375280501,0000003A,false,Rx,0,6,24,00,0C,02,F0,00,00,00,
375281485,00000332,false,Rx,0,8,24,00,30,37,30,30,FF,FF,
375282595,00000042,false,Rx,0,6,24,00,0C,02,F0,00,00,00,
375283584,0000033A,false,Rx,0,8,24,00,30,37,31,37,FF,FF,
375284581,0000004A,false,Rx,0,6,24,00,0C,02,F0,00,00,00,
375285751,00000342,false,Rx,0,8,24,00,30,33,36,39,FF,FF,
375286551,00000052,false,Rx,0,6,24,00,0C,02,F0,00,00,00,
375287544,0000034A,false,Rx,0,8,24,00,30,36,32,39,FF,FF,
375287544,0000000A,false,Rx,0,6,24,00,40,02,F0,00,00,00,
375288682,00000352,false,Rx,0,8,24,00,30,34,39,34,FF,FF,
375289679,00000012,false,Rx,0,6,24,00,40,02,F0,00,00,00,
375290685,0000030A,false,Rx,0,8,24,00,0F,30,36,2D,30,30,
375291610,0000001A,false,Rx,0,6,24,00,40,02,F0,00,00,00,
375292601,00000312,false,Rx,0,8,24,00,0F,30,36,2D,30,30,
375293711,0000002A,false,Rx,0,6,24,00,40,02,F0,00,00,00,
375294813,0000031A,false,Rx,0,8,24,00,0F,30,36,2D,30,30,
375294814,00000032,false,Rx,0,6,24,00,40,02,F0,00,00,00,
375295854,0000032A,false,Rx,0,8,24,00,0F,30,36,2D,30,30,
375296718,0000003A,false,Rx,0,6,24,00,40,02,F0,00,00,00,
375297681,00000332,false,Rx,0,8,24,00,0F,30,36,2D,30,30,
375298715,00000042,false,Rx,0,6,24,00,40,02,F0,00,00,00,
375299781,0000033A,false,Rx,0,8,24,00,0F,30,36,2D,30,30,
375300780,0000004A,false,Rx,0,6,24,00,40,02,F0,00,00,00,
375301789,00000342,false,Rx,0,8,24,00,0F,30,36,2D,30,30,
375301790,00000052,false,Rx,0,6,24,00,40,02,F0,00,00,00,
375302787,0000034A,false,Rx,0,8,24,00,0F,30,36,2D,30,30,
375303808,0000000A,false,Rx,0,6,24,00,46,02,F0,00,00,00,
375304888,00000352,false,Rx,0,8,24,00,0F,30,36,2D,30,30,
375305813,00000012,false,Rx,0,6,24,00,46,02,F0,00,00,00,
375306821,0000030A,false,Rx,0,8,24,00,31,32,34,32,2D,30,
375307740,0000001A,false,Rx,0,6,24,00,46,02,F0,00,00,00,
375308834,00000312,false,Rx,0,8,24,00,31,32,34,32,2D,30,
375308834,0000002A,false,Rx,0,6,24,00,46,02,F0,00,00,00,
375309728,0000031A,false,Rx,0,8,24,00,31,32,34,32,2D,30,
375310723,00000032,false,Rx,0,6,24,00,46,02,F0,00,00,00,
375311748,0000032A,false,Rx,0,8,24,00,31,32,34,32,2D,30,
375312740,0000003A,false,Rx,0,6,24,00,46,02,F0,00,00,00,
375313703,00000332,false,Rx,0,8,24,00,31,32,34,32,2D,30,
375314768,00000042,false,Rx,0,6,24,00,46,02,F0,00,00,00,
375315730,0000033A,false,Rx,0,8,24,00,31,32,34,32,2D,30,
375315730,0000004A,false,Rx,0,6,24,00,46,02,F0,00,00,00,
375316771,00000342,false,Rx,0,8,24,00,31,32,34,32,2D,30,
375317774,00000052,false,Rx,0,6,24,00,46,02,F0,00,00,00,
375318798,0000034A,false,Rx,0,8,24,00,31,32,34,32,2D,30,
375319865,0000000A,false,Rx,0,6,24,00,4C,02,F0,00,00,00,
375320837,00000352,false,Rx,0,8,24,00,31,32,34,32,2D,30,
375320838,00000012,false,Rx,0,6,24,00,4C,02,F0,00,00,00,
375321926,0000030A,false,Rx,0,8,24,00,30,20,41,43,FF,FF,
375322926,0000001A,false,Rx,0,6,24,00,4C,02,F0,00,00,00,
375323924,00000312,false,Rx,0,8,24,00,30,20,41,43,FF,FF,
375324922,0000031A,false,Rx,0,8,24,00,30,20,41,43,FF,FF,
375325930,0000035A,false,Rx,0,8,24,00,44,4E,2D,30,30,30,
375328271,00000200,false,Rx,0,2,03,0E,00,00,00,00,00,00,
375329269,00000200,false,Rx,0,2,03,0E,00,00,00,00,00,00,
375330201,000000B2,false,Rx,0,8,78,80,A0,80,9E,85,04,00,
375341743,0000008A,false,Rx,0,8,78,80,A0,80,9D,85,04,00,
375365128,000000A2,false,Rx,0,8,78,80,C8,80,9D,85,04,00,
375370878,000000AA,false,Rx,0,8,78,80,A0,80,9C,85,04,00,
375379290,000000BA,false,Rx,0,8,78,80,C8,80,9D,85,04,50,
375401265,00000092,false,Rx,0,8,00,80,C8,80,FC,84,04,10,
375403695,000000AC,false,Rx,0,8,B9,18,16,19,74,63,02,23,
375412171,000000BC,false,Rx,0,8,B6,18,23,19,A4,63,02,21,
375420005,000000DA,false,Rx,0,8,78,80,A0,80,9A,85,04,00,
375421199,0000002A,false,Rx,0,6,24,00,4C,02,F0,00,00,00,
375423525,00000032,false,Rx,0,6,24,00,4C,02,F0,00,00,00,
375425256,0000003A,false,Rx,0,6,24,00,4C,02,F0,00,00,00,
375428470,00000042,false,Rx,0,6,24,00,4C,02,F0,00,00,00,
375429465,00000332,false,Rx,0,8,24,00,30,20,41,43,FF,FF,
375430496,00000200,false,Rx,0,2,03,0E,00,00,00,00,00,00,
375431492,000000D2,false,Rx,0,8,78,80,C8,80,9C,85,04,00,
375432494,000000C2,false,Rx,0,8,78,80,C8,80,9E,85,04,20,
375432496,00000200,false,Rx,0,2,03,0E,00,00,00,00,00,00,
375433517,00000342,false,Rx,0,8,24,00,30,20,41,43,FF,FF,
375434522,00000094,false,Rx,0,8,C1,18,28,19,99,63,02,23,
375456095,000000CA,false,Rx,0,8,78,80,C8,80,9F,85,04,10,
375463472,000000D4,false,Rx,0,8,B9,18,28,19,AC,63,02,23,
375488933,000000CC,false,Rx,0,8,DE,18,23,19,DF,63,02,20,
375502152,0000032A,false,Rx,0,8,24,00,30,20,41,43,FF,FF,
375510877,0000033A,false,Rx,0,8,24,00,30,20,41,43,FF,FF,
375521327,00000280,false,Rx,0,5,06,10,07,84,1A,00,00,00,
375522322,00000280,false,Rx,0,1,05,00,00,00,00,00,00,00,
375524404,00000280,false,Rx,0,2,07,01,00,00,00,00,00,00,
375525424,00000280,false,Rx,0,8,23,00,51,47,0A,00,01,23,
375526421,00000280,false,Rx,0,8,04,0E,B0,00,00,00,00,00,
375527421,00000280,false,Rx,0,8,04,0E,B0,00,00,00,00,00,
375528446,00000200,false,Rx,0,1,20,00,00,00,00,00,00,00,
375529447,00000280,false,Rx,0,8,04,0E,B0,00,00,00,00,00,
375529447,00000200,false,Rx,0,1,26,00,00,00,00,00,00,00,
375530446,00000280,false,Rx,0,8,04,0E,B0,00,00,00,00,00,
375531448,00000200,false,Rx,0,1,00,00,00,00,00,00,00,00,
375532480,00000280,false,Rx,0,7,20,8C,91,03,73,6E,FC,00,
375532480,00000208,false,Rx,0,1,00,00,00,00,00,00,00,00,
375533471,00000280,false,Rx,0,4,26,85,8F,03,00,00,00,00,
375534494,00000200,false,Rx,0,5,23,08,00,F0,00,00,00,00,
375535471,00000280,false,Rx,0,7,00,01,3F,00,00,0F,00,00,
375535471,00000006,false,Rx,0,4,25,00,00,00,00,00,00,00,
375536501,00000280,false,Rx,0,8,23,06,00,22,91,00,52,80,
375537623,00000280,false,Rx,0,8,14,CB,65,65,00,00,12,02,
375539387,0000009A,false,Rx,0,8,78,80,A0,80,9C,85,04,00,
375540387,0000004A,false,Rx,0,6,24,00,4C,02,F0,00,00,00,
375541388,0000034A,false,Rx,0,8,24,00,30,20,41,43,FF,FF,
375542388,00000052,false,Rx,0,6,24,00,4C,02,F0,00,00,00,
375554662,0000005A,false,Rx,0,6,24,00,0C,02,F0,00,00,00,
375555764,0000035A,false,Rx,0,8,24,00,30,35,35,34,FF,FF,
375562187,00000352,false,Rx,0,8,24,00,30,20,41,43,FF,FF,
375572247,0000009C,false,Rx,0,8,BF,18,0B,19,83,63,02,21,
375612680,00000609,false,Rx,0,8,43,53,42,2D,52,32,00,41,
375621674,00000280,false,Rx,0,8,14,CB,64,65,00,60,5D,00,
375622698,00000280,false,Rx,0,5,10,00,00,00,00,00,00,00,
375623699,00000380,false,Rx,0,6,09,46,00,00,00,01,00,00,
375658101,0000005A,false,Rx,0,6,24,00,40,02,F0,00,00,00,
375659203,0000035A,false,Rx,0,8,24,00,0F,30,36,2D,30,30,
375664756,0000005A,false,Rx,0,6,24,00,46,02,F0,00,00,00,
375665826,0000035A,false,Rx,0,8,24,00,31,32,34,32,2D,30,
375668427,0000005A,false,Rx,0,6,24,00,4C,02,F0,00,00,00,
375669577,0000035A,false,Rx,0,8,24,00,30,20,41,43,FF,FF,
375722453,00000280,false,Rx,0,8,14,CB,65,65,00,89,12,00,
375723477,00000380,false,Rx,0,7,02,00,02,00,00,00,07,00,
375724479,00000280,false,Rx,0,8,04,0E,F8,00,00,00,00,00,
375733925,000000A2,false,Rx,0,8,78,80,C8,80,9D,85,04,00,
375766905,000000A4,false,Rx,0,8,B8,18,0C,19,7B,63,02,21,
375821816,000000DA,false,Rx,0,8,78,80,A0,80,9A,85,04,00,
375823340,00000280,false,Rx,0,8,14,CB,65,65,00,89,11,00,
375824560,00000280,false,Rx,0,8,04,0E,F8,00,00,00,00,00,
375830178,000000B2,false,Rx,0,8,78,80,A0,80,9E,85,04,00,
375832924,000000C2,false,Rx,0,8,78,80,C8,80,9E,85,04,20,
375841766,0000008A,false,Rx,0,8,78,80,C8,80,9D,85,04,00,
375857929,000000CA,false,Rx,0,8,78,80,C8,80,9F,85,04,10,
375870828,000000AA,false,Rx,0,8,78,80,C8,80,9C,85,04,70,
375890777,000000CC,false,Rx,0,8,DD,18,27,19,E1,63,02,20,
375901294,00000092,false,Rx,0,8,00,80,C8,80,FC,84,04,10,
375903702,000000AC,false,Rx,0,8,BA,18,13,19,71,63,02,23,
375911881,000000BC,false,Rx,0,8,B7,18,22,19,A2,63,02,21,
375924188,00000280,false,Rx,0,8,14,CB,65,65,00,89,12,00,
375925263,00000280,false,Rx,0,8,04,0E,F8,00,00,00,00,00,
375930649,000000D2,false,Rx,0,8,78,80,C8,80,9C,85,04,20,
375934126,00000094,false,Rx,0,8,C3,18,29,19,9E,63,02,23,
375963538,000000D4,false,Rx,0,8,BA,18,28,19,AE,63,02,23,
376010405,000000BA,false,Rx,0,8,78,80,A0,80,9D,85,04,00,
376024988,00000280,false,Rx,0,8,14,CB,65,65,00,89,12,00,
376026053,00000280,false,Rx,0,8,04,0E,F8,00,00,00,00,00,
376125760,00000280,false,Rx,0,8,14,CB,65,65,00,89,12,00,
376126830,00000280,false,Rx,0,8,04,0E,F8,00,00,00,00,00,
376129734,00000208,false,Rx,0,1,00,00,00,00,00,00,00,00,
376137554,0000009A,false,Rx,0,8,78,80,A0,80,9C,85,04,00,
376170409,0000009C,false,Rx,0,8,C0,18,09,19,83,63,02,21,
376226548,00000280,false,Rx,0,8,14,CB,65,65,00,89,12,00,
376227647,00000280,false,Rx,0,8,04,0E,F8,00,00,00,00,00,
376234121,000000A2,false,Rx,0,8,78,80,A0,80,9D,85,04,00,
376237976,0000010A,false,Rx,0,5,00,00,64,01,00,00,00,00,
376239010,00000106,false,Rx,0,6,00,00,00,00,00,00,00,00,
376240007,0000010C,false,Rx,0,3,00,00,00,00,00,00,00,00,
376266901,000000A4,false,Rx,0,8,B6,18,0B,19,77,63,02,21,
376321868,000000DA,false,Rx,0,8,78,80,A0,80,9A,85,04,00,
376327462,00000280,false,Rx,0,8,14,CB,65,65,00,89,12,00,
376328526,00000280,false,Rx,0,8,04,0E,F8,00,00,00,00,00,
376330172,000000B2,false,Rx,0,8,78,80,A0,80,76,85,04,00,
376341779,0000008A,false,Rx,0,8,78,80,A0,80,75,85,04,00,
376357918,000000CA,false,Rx,0,8,78,80,C8,80,9F,85,04,10,
376379378,000000BA,false,Rx,0,8,78,80,A0,80,9D,85,04,00,
376390757,000000CC,false,Rx,0,8,DA,18,27,19,E0,63,02,20,
376392028,00000501,false,Rx,0,8,48,56,43,2D,52,33,00,20,
376412260,000000BC,false,Rx,0,8,B8,18,22,19,A4,63,02,21,
376428183,00000280,false,Rx,0,8,14,CB,65,65,00,89,12,00,
376429208,00000280,false,Rx,0,5,06,10,07,84,1A,00,00,00,
376430608,000000D2,false,Rx,0,8,78,80,C7,80,9C,85,04,70,
376431633,000000C2,false,Rx,0,8,78,80,C8,80,9E,85,04,20,
376433834,00000094,false,Rx,0,8,C5,18,29,19,A1,63,02,23,
376463516,000000D4,false,Rx,0,8,B7,18,28,19,A7,63,02,23,
376469085,000000AA,false,Rx,0,8,78,80,A0,80,9C,85,04,00,
376501919,000000AC,false,Rx,0,8,B8,18,16,19,74,63,02,23,
376528935,00000280,false,Rx,0,8,14,CB,65,65,00,89,11,00,
376530026,00000280,false,Rx,0,8,04,0E,F8,00,00,00,00,00,
376532389,00000092,false,Rx,0,8,00,80,C8,80,FC,84,04,10,
376539384,0000009A,false,Rx,0,8,78,80,A0,80,9C,85,04,00,
376572246,0000009C,false,Rx,0,8,BE,18,0A,19,80,63,02,21,
376626666,00000380,false,Rx,0,6,09,46,00,00,00,01,00,00,
376629788,00000280,false,Rx,0,8,14,CB,65,65,00,89,12,00,
376630793,00000280,false,Rx,0,5,10,00,00,00,00,00,00,00,
376631902,00000006,false,Rx,0,4,25,00,00,00,00,00,00,00,
376726161,00000380,false,Rx,0,7,02,00,02,00,00,00,0B,00,
376730532,00000280,false,Rx,0,8,14,CB,65,65,00,89,12,00,
376731629,00000280,false,Rx,0,8,04,0E,F8,00,00,00,00,00,
376830181,000000B2,false,Rx,0,8,78,80,A0,80,9E,85,04,00,
376831348,00000280,false,Rx,0,8,14,CB,65,65,00,88,11,03,
376832484,000000A2,false,Rx,0,8,78,80,C7,80,9D,85,04,10,
376833380,000000C2,false,Rx,0,8,78,80,C8,80,9E,85,04,20,
376834375,00000280,false,Rx,0,8,04,0E,F8,00,00,00,00,00,
376865070,000000A4,false,Rx,0,8,B7,18,0F,19,81,63,02,21,
376870893,000000AA,false,Rx,0,8,78,80,A0,80,9C,85,04,00,
376901337,00000092,false,Rx,0,8,00,80,C8,80,FC,84,04,10,
376903738,000000AC,false,Rx,0,8,BB,18,16,19,6F,63,02,23,
376920041,000000DA,false,Rx,0,8,78,80,A0,80,9A,85,04,00,
376932216,00000280,false,Rx,0,8,14,CB,65,65,00,89,12,00,
376933292,00000280,false,Rx,0,8,04,0E,F8,00,00,00,00,00,
376934313,00000094,false,Rx,0,8,C2,18,29,19,98,63,02,23,
376939940,0000008A,false,Rx,0,8,78,80,A0,80,75,85,04,00,
376956139,000000CA,false,Rx,0,8,78,80,A0,80,9F,85,04,00,
376977615,000000BA,false,Rx,0,8,78,80,A0,80,9D,85,04,00,
376988949,000000CC,false,Rx,0,8,DE,18,26,19,E1,63,02,20,
377010444,000000BC,false,Rx,0,8,B6,18,22,19,A0,63,02,21,
377028843,000000D2,false,Rx,0,8,78,80,C8,80,9C,85,04,20,
377032973,00000280,false,Rx,0,8,14,CB,65,65,00,89,12,00,
377034069,00000280,false,Rx,0,8,04,0E,F8,00,00,00,00,00,
377039414,0000009A,false,Rx,0,8,78,80,A0,80,9C,85,04,00,
377061709,000000D4,false,Rx,0,8,B8,18,28,19,AD,63,02,23,
377072237,0000009C,false,Rx,0,8,C1,18,0B,19,89,63,02,21,
377133695,00000280,false,Rx,0,8,14,CB,65,65,00,89,12,00,
377134793,00000280,false,Rx,0,8,04,0E,F8,00,00,00,00,00,
377135885,00000208,false,Rx,0,1,00,00,00,00,00,00,00,00,
377234102,000000A2,false,Rx,0,8,78,80,C7,80,9D,85,04,10,
377234994,00000280,false,Rx,0,8,14,CB,65,65,00,89,12,00,
377235952,00000280,false,Rx,0,8,04,0E,F8,00,00,00,00,00,
377248260,0000010A,false,Rx,0,5,00,00,64,00,00,00,00,00,
377249253,00000106,false,Rx,0,6,00,00,00,00,00,00,00,00,
377250287,0000010C,false,Rx,0,3,00,00,00,00,00,00,00,00,
377266851,000000A4,false,Rx,0,8,B5,18,0F,19,7F,63,02,21,
377321890,000000DA,false,Rx,0,8,78,80,A0,80,9A,85,04,00,
377330190,000000B2,false,Rx,0,8,78,80,A0,80,76,85,04,00,
377335420,00000280,false,Rx,0,8,14,CB,65,65,00,89,12,00,
377336406,00000280,false,Rx,0,8,04,0E,F8,00,00,00,00,00,
377341791,0000008A,false,Rx,0,8,78,80,A0,80,75,85,04,00,
377357929,000000CA,false,Rx,0,8,78,80,A0,80,9F,85,04,00,
377379424,000000BA,false,Rx,0,8,78,80,A0,80,9D,85,04,00,
377390773,000000CC,false,Rx,0,8,E0,18,26,19,E3,63,02,20,
377401369,00000092,false,Rx,0,8,00,80,C8,80,FC,84,04,10,
377412271,000000BC,false,Rx,0,8,B5,18,21,19,9F,63,02,21,
377430695,000000D2,false,Rx,0,8,78,80,C8,80,9C,85,04,20,
377431701,000000C2,false,Rx,0,8,78,80,A0,80,9E,85,04,00,
377434196,00000094,false,Rx,0,8,BF,18,28,19,9D,63,02,23,
377436149,00000280,false,Rx,0,8,14,CB,65,65,00,89,12,00,
377437146,00000280,false,Rx,0,5,06,10,07,84,1A,00,00,00,
377463551,000000D4,false,Rx,0,8,BA,18,28,19,AB,63,02,23,
377469099,000000AA,false,Rx,0,8,78,80,A0,80,9C,85,04,00,
377501927,000000AC,false,Rx,0,8,BA,18,15,19,78,63,02,23,
377536910,00000280,false,Rx,0,8,14,CB,65,65,00,89,12,00,
377538004,00000280,false,Rx,0,8,04,0E,F8,00,00,00,00,00,
377629801,00000380,false,Rx,0,6,09,46,00,00,00,01,00,00,
377637609,0000009A,false,Rx,0,8,78,80,A0,80,9C,85,04,00,
377638616,00000280,false,Rx,0,8,14,CB,65,65,00,89,12,00,
377639641,00000280,false,Rx,0,5,10,00,00,00,00,00,00,00,
377670467,0000009C,false,Rx,0,8,C0,18,0C,19,86,63,02,21,
377729280,00000380,false,Rx,0,7,02,00,02,00,00,00,0F,00,
377738547,00000280,false,Rx,0,8,14,CB,65,65,00,89,52,00,
377739667,00000280,false,Rx,0,8,04,0E,F8,00,00,00,00,00,
377740945,00000006,false,Rx,0,4,25,00,00,00,00,00,00,00,
377821870,000000DA,false,Rx,0,8,78,80,A0,80,9A,85,04,00,
377830217,000000B2,false,Rx,0,8,78,80,A0,80,9E,85,04,00,
377832217,000000A2,false,Rx,0,8,78,80,A0,80,9D,85,04,00,
377833271,000000C2,false,Rx,0,8,78,80,A0,80,9E,85,04,00,
377839337,00000280,false,Rx,0,8,14,CB,65,65,00,89,12,00,
377840486,00000280,false,Rx,0,8,04,0E,F8,00,00,00,00,00,
377841854,0000008A,false,Rx,0,8,78,80,A0,80,75,85,04,00,
377857962,000000CA,false,Rx,0,8,78,80,C8,80,9F,85,04,20,
377865066,000000A4,false,Rx,0,8,BA,18,0E,19,80,63,02,21,
377870890,000000AA,false,Rx,0,8,78,80,A0,80,9C,85,04,00,
377879447,000000BA,false,Rx,0,8,78,80,A0,80,9D,85,04,00,
377890833,000000CC,false,Rx,0,8,DD,18,25,19,E1,63,02,20,
377903752,000000AC,false,Rx,0,8,BB,18,13,19,71,63,02,23,
377912279,000000BC,false,Rx,0,8,B5,18,21,19,A0,63,02,21,
377933877,00000094,false,Rx,0,8,C1,18,29,19,A1,63,02,23,
377940127,00000280,false,Rx,0,8,14,CB,65,65,00,89,12,00,
377941199,00000280,false,Rx,0,8,04,0E,F8,00,00,00,00,00,
378028910,000000D2,false,Rx,0,8,78,80,C7,80,9C,85,04,50,
378032434,00000092,false,Rx,0,8,00,80,C7,80,FC,84,04,50,
378039404,0000009A,false,Rx,0,8,78,80,A0,80,9C,85,04,00,
378040879,00000280,false,Rx,0,8,14,CB,65,65,00,89,12,00,
378041970,00000280,false,Rx,0,8,04,0E,F8,00,00,00,00,00,
378061746,000000D4,false,Rx,0,8,B9,18,29,19,AD,63,02,23,
378072306,0000009C,false,Rx,0,8,BE,18,09,19,81,63,02,21,
378141700,00000280,false,Rx,0,8,14,CB,65,65,00,89,11,00,
378142772,00000280,false,Rx,0,8,04,0E,F8,00,00,00,00,00,
378143948,00000208,false,Rx,0,1,00,00,00,00,00,00,00,00,
378144964,00000288,false,Rx,0,7,00,01,2B,00,00,0F,00,00,
378234024,000000A2,false,Rx,0,8,78,80,A0,80,9D,85,04,00,
378242481,00000280,false,Rx,0,8,14,CB,65,65,00,89,11,00,
378243574,00000280,false,Rx,0,8,04,0E,F8,00,00,00,00,00,
378257844,0000010A,false,Rx,0,5,00,00,64,00,00,00,00,00,
378259030,00000106,false,Rx,0,6,00,00,00,00,00,00,00,00,
378259943,0000010C,false,Rx,0,3,00,00,00,00,00,00,00,00,
378266991,000000A4,false,Rx,0,8,B5,18,0D,19,7B,63,02,21,
378330146,000000B2,false,Rx,0,8,78,80,A0,80,76,85,04,00,
378343353,00000280,false,Rx,0,8,14,CB,65,65,00,89,11,00,
378344417,00000280,false,Rx,0,8,04,0E,F8,00,00,00,00,00,
378390491,000000CC,false,Rx,0,8,DD,18,28,19,E5,63,02,20,
378420075,000000DA,false,Rx,0,8,78,80,A0,80,9A,85,04,00,
378427908,00000300,false,Rx,0,1,00,00,00,00,00,00,00,00,
378428906,00000180,false,Rx,0,1,00,00,00,00,00,00,00,00,
378429938,00000380,false,Rx,0,7,00,02,08,00,00,10,00,00,
378430936,00000006,false,Rx,0,3,1E,00,00,00,00,00,00,00,
378430937,000000D2,false,Rx,0,8,78,80,C7,80,9C,85,04,50,
378431958,00000006,false,Rx,0,3,1E,01,01,00,00,00,00,00,
378432955,000000C2,false,Rx,0,8,78,80,A0,80,9E,85,04,00,
378433958,00000006,false,Rx,0,3,1E,02,01,00,00,00,00,00,
378433960,0000031A,false,Rx,0,3,1E,00,00,00,00,00,00,00,
378434959,00000006,false,Rx,0,3,1E,03,00,00,00,00,00,00,
378434961,0000031A,false,Rx,0,3,1E,01,01,00,00,00,00,00,
378436015,0000031A,false,Rx,0,3,1E,02,01,00,00,00,00,00,
378436984,0000031A,false,Rx,0,3,1E,03,00,00,00,00,00,00,
378436985,00000322,false,Rx,0,3,1E,00,00,00,00,00,00,00,
378437984,00000332,false,Rx,0,3,1E,00,00,00,00,00,00,00,
378437985,00000322,false,Rx,0,3,1E,01,01,00,00,00,00,00,
378439005,00000332,false,Rx,0,3,1E,01,01,00,00,00,00,00,
378440044,00000322,false,Rx,0,3,1E,02,01,00,00,00,00,00,
378441005,0000008A,false,Rx,0,8,78,80,A0,80,75,85,04,00,
378441006,0000030A,false,Rx,0,3,1E,00,00,00,00,00,00,00,
378442034,00000322,false,Rx,0,3,1E,03,00,00,00,00,00,00,
378442035,0000030A,false,Rx,0,3,1E,01,01,00,00,00,00,00,
378443038,0000030A,false,Rx,0,3,1E,02,01,00,00,00,00,00,
378444061,00000332,false,Rx,0,3,1E,02,01,00,00,00,00,00,
378444062,00000332,false,Rx,0,3,1E,03,00,00,00,00,00,00,
378445051,00000280,false,Rx,0,8,14,CB,65,65,00,89,52,00,
378446075,00000342,false,Rx,0,3,1E,00,00,00,00,00,00,00,
378446076,00000280,false,Rx,0,5,06,10,07,84,1A,00,00,00,
378447082,00000342,false,Rx,0,3,1E,01,01,00,00,00,00,00,
378448084,00000342,false,Rx,0,3,1E,02,01,00,00,00,00,00,
378448085,00000342,false,Rx,0,3,1E,03,00,00,00,00,00,00,
378449100,0000035A,false,Rx,0,3,1E,00,00,00,00,00,00,00,
378449101,0000035A,false,Rx,0,3,1E,01,01,00,00,00,00,00,
378450113,0000035A,false,Rx,0,3,1E,02,01,00,00,00,00,00,
378463580,000000D4,false,Rx,0,8,B8,18,29,19,AB,63,02,23,
378464609,00000352,false,Rx,0,3,1E,00,00,00,00,00,00,00,
378467031,0000013C,false,Rx,0,8,05,22,F1,88,F1,8C,00,00,
378469112,000000AA,false,Rx,0,8,78,80,A0,80,9C,85,04,00,
378473134,0000013E,false,Rx,0,8,10,2D,62,F1,88,39,45,35,
378475659,0000008C,false,Rx,0,8,F7,18,66,19,4E,64,02,20,
378476659,0000030A,false,Rx,0,3,1E,03,00,00,00,00,00,00,
378477709,000000BA,false,Rx,0,8,78,80,A0,80,9D,85,04,00,
378482735,000000DC,false,Rx,0,8,DB,18,63,19,1C,64,02,21,
378483737,0000013E,false,Rx,0,8,21,48,2D,31,34,44,34,39,
378484762,0000035A,false,Rx,0,3,1E,03,00,00,00,00,00,00,
378489037,000000CA,false,Rx,0,8,78,80,C8,80,9F,85,04,70,
378490035,0000034A,false,Rx,0,3,1E,00,00,00,00,00,00,00,
378491060,0000034A,false,Rx,0,3,1E,01,01,00,00,00,00,00,
378491061,0000034A,false,Rx,0,3,1E,02,01,00,00,00,00,00,
378492038,0000034A,false,Rx,0,3,1E,03,00,00,00,00,00,00,
378493062,0000013E,false,Rx,0,8,22,31,2D,41,47,00,00,00,
378499590,00000092,false,Rx,0,8,00,80,C8,80,FC,84,04,10,
378501965,000000AC,false,Rx,0,8,BD,18,16,19,72,63,02,23,
378502965,0000013E,false,Rx,0,8,23,00,00,00,00,00,00,00,
378503965,0000032A,false,Rx,0,3,1E,00,00,00,00,00,00,00,
378504989,0000032A,false,Rx,0,3,1E,01,01,00,00,00,00,00,
378504990,0000032A,false,Rx,0,3,1E,02,01,00,00,00,00,00,
378505989,0000032A,false,Rx,0,3,1E,03,00,00,00,00,00,00,
378510538,000000BC,false,Rx,0,8,B5,18,22,19,A2,63,02,21,
378511539,0000033A,false,Rx,0,3,1E,00,00,00,00,00,00,00,
378512563,0000033A,false,Rx,0,3,1E,01,01,00,00,00,00,00,
378512563,0000033A,false,Rx,0,3,1E,02,01,00,00,00,00,00,
378513563,0000033A,false,Rx,0,3,1E,03,00,00,00,00,00,00,
378522786,0000013E,false,Rx,0,8,24,F1,8C,30,30,31,30,30,
378532410,00000094,false,Rx,0,8,C1,18,26,19,9B,63,02,23,
378533410,0000013E,false,Rx,0,8,25,33,30,36,32,33,36,35,
378534429,00000312,false,Rx,0,3,1E,00,00,00,00,00,00,00,
378535435,00000312,false,Rx,0,3,1E,01,01,00,00,00,00,00,
378535436,00000312,false,Rx,0,3,1E,02,01,00,00,00,00,00,
378536459,00000312,false,Rx,0,3,1E,03,00,00,00,00,00,00,
378539437,0000009A,false,Rx,0,8,78,80,A0,80,9C,85,04,00,
378542785,0000013E,false,Rx,0,8,26,00,00,00,00,00,00,00,
378544937,00000280,false,Rx,0,8,14,CB,65,65,00,89,12,00,
378546004,00000280,false,Rx,0,8,04,0E,F8,00,00,00,00,00,
378561729,00000352,false,Rx,0,3,1E,01,01,00,00,00,00,00,
378562753,00000352,false,Rx,0,3,1E,02,01,00,00,00,00,00,
378563753,00000352,false,Rx,0,3,1E,03,00,00,00,00,00,00,
378572261,0000009C,false,Rx,0,8,BE,18,0A,19,84,63,02,21,
378633010,00000380,false,Rx,0,6,09,46,00,00,00,01,00,00,
378645680,00000280,false,Rx,0,8,14,CB,65,65,00,89,11,00,
378646704,00000280,false,Rx,0,5,10,00,00,00,00,00,00,00,
378732480,00000380,false,Rx,0,7,02,00,02,00,00,00,13,00,
378734031,000000A2,false,Rx,0,8,78,80,A0,80,9D,85,04,00,
378746530,00000280,false,Rx,0,8,14,CB,65,65,00,89,52,00,
378747638,00000280,false,Rx,0,8,04,0E,F8,00,00,00,00,00,
378752480,00000006,false,Rx,0,4,25,00,00,00,00,00,00,00,
378766859,000000A4,false,Rx,0,8,B8,18,0C,19,79,63,02,21,
378830271,000000B2,false,Rx,0,8,78,80,A0,80,76,85,04,00,
378833027,000000C2,false,Rx,0,8,78,80,A0,80,9E,85,04,00,
378841870,0000008A,false,Rx,0,8,78,80,A0,80,75,85,04,00,
378847348,00000280,false,Rx,0,8,14,CB,65,65,00,89,12,00,
378848479,00000280,false,Rx,0,8,04,0E,F8,00,00,00,00,00,
378862994,000000B4,false,Rx,0,8,AD,18,1E,19,51,63,02,21,
378865746,000000C4,false,Rx,0,8,A0,18,2B,19,6E,63,02,23,
378870898,000000AA,false,Rx,0,8,78,80,A0,80,9C,85,04,00,
378872552,00000180,false,Rx,0,1,01,00,00,00,00,00,00,00,
378874587,0000008C,false,Rx,0,8,EF,18,67,19,4E,64,02,20,
378879514,000000BA,false,Rx,0,8,78,80,A0,80,9D,85,04,00,
378903789,000000AC,false,Rx,0,8,BC,18,14,19,72,63,02,23,
378912359,000000BC,false,Rx,0,8,B6,18,23,19,9F,63,02,21,
378920114,000000DA,false,Rx,0,8,78,80,A0,80,9A,85,04,00,
378930736,000000D2,false,Rx,0,8,78,80,C8,80,9C,85,04,00,
378948112,00000280,false,Rx,0,8,14,CB,65,65,00,89,12,00,
378949234,00000280,false,Rx,0,8,04,0E,F8,00,00,00,00,00,
378952960,000000DC,false,Rx,0,8,DF,18,64,19,21,64,02,21,
378956186,000000CA,false,Rx,0,8,78,80,C8,80,9F,85,04,20,
378963609,000000D4,false,Rx,0,8,BA,18,2B,19,B0,63,02,23,
378989044,000000CC,false,Rx,0,8,DC,18,26,19,E0,63,02,20,
378999591,00000092,false,Rx,0,8,00,80,C8,80,FC,84,04,10,
379032434,00000094,false,Rx,0,8,C2,18,28,19,99,63,02,23,
379039459,0000009A,false,Rx,0,8,78,80,A0,80,9C,85,04,00,
379048880,00000280,false,Rx,0,8,14,CB,65,65,00,89,11,00,
379049959,00000280,false,Rx,0,8,04,0E,F8,00,00,00,00,00,
379072288,0000009C,false,Rx,0,8,BF,18,08,19,7E,63,02,21,
379149701,00000280,false,Rx,0,8,14,CB,65,65,00,89,52,00,
379150770,00000280,false,Rx,0,8,04,0E,F8,00,00,00,00,00,
379250461,00000280,false,Rx,0,8,14,CB,65,65,00,89,12,00,
379251562,00000280,false,Rx,0,8,04,0E,F8,00,00,00,00,00,
379272428,0000010A,false,Rx,0,5,00,00,64,00,00,00,00,00,
379273438,00000106,false,Rx,0,6,00,00,00,00,00,00,00,00,
379274528,0000010C,false,Rx,0,3,00,00,00,00,00,00,00,00,
379281070,00000106,false,Rx,0,6,06,1C,00,03,05,00,00,00,
379322116,000000DA,false,Rx,0,8,78,80,A0,80,9A,85,04,00,
379330242,000000B2,false,Rx,0,8,78,80,A0,80,4E,85,04,00,
379332330,000000A2,false,Rx,0,8,78,80,C8,80,9D,85,04,00,
379341868,0000008A,false,Rx,0,8,78,80,A0,80,75,85,04,00,
379351337,00000280,false,Rx,0,8,14,CB,65,65,00,89,52,00,
379352446,00000280,false,Rx,0,8,04,0E,F8,00,00,00,00,00,
379354785,000000DC,false,Rx,0,8,DE,18,63,19,1E,64,02,21,
379357958,000000CA,false,Rx,0,8,78,80,C8,80,9F,85,04,20,
379363000,000000B4,false,Rx,0,8,AD,18,1E,19,51,63,02,21,
379365122,000000A4,false,Rx,0,8,B7,18,0F,19,7F,63,02,21,
379374686,0000008C,false,Rx,0,8,F5,18,68,19,54,64,02,20,
379390858,000000CC,false,Rx,0,8,DC,18,24,19,DC,63,02,20,
379401411,00000092,false,Rx,0,8,00,80,C8,80,FC,84,04,10,
379430735,000000D2,false,Rx,0,8,78,80,A0,80,9C,85,04,00,
379431759,000000C2,false,Rx,0,8,78,80,A0,80,9E,85,04,00,
379434292,00000094,false,Rx,0,8,C1,18,28,19,9D,63,02,23,
379452083,00000280,false,Rx,0,8,14,CB,65,65,00,89,52,00,
379453085,00000280,false,Rx,0,5,06,10,07,84,1A,00,00,00,
379463595,000000D4,false,Rx,0,8,B8,18,2A,19,AC,63,02,23,
379464613,000000C4,false,Rx,0,8,A3,18,2B,19,72,63,02,23,
379469136,000000AA,false,Rx,0,8,78,80,A0,80,9C,85,04,00,
379477745,000000BA,false,Rx,0,8,78,80,A0,80,9D,85,04,00,
379501997,000000AC,false,Rx,0,8,BC,18,13,19,6F,63,02,23,
379510573,000000BC,false,Rx,0,8,B3,18,21,19,9E,63,02,21,
379546399,00000180,false,Rx,0,1,01,00,00,00,00,00,00,00,
379552920,00000280,false,Rx,0,8,14,CB,65,65,00,89,12,00,
379553987,00000280,false,Rx,0,8,04,0E,F8,00,00,00,00,00,
379636271,00000380,false,Rx,0,6,09,46,00,00,00,01,00,00,
379637667,0000009A,false,Rx,0,8,78,80,A0,80,9C,85,04,00,
379653706,00000280,false,Rx,0,8,14,CB,65,65,00,89,12,00,
379654692,00000280,false,Rx,0,5,10,00,00,00,00,00,00,00,
379670517,0000009C,false,Rx,0,8,BD,18,08,19,81,63,02,21,
379735788,00000380,false,Rx,0,7,02,00,02,00,00,00,17,00,
379754443,00000280,false,Rx,0,8,14,CB,65,65,00,89,12,00,
379755541,00000280,false,Rx,0,8,04,0E,F8,00,00,00,00,00,
379766544,000000A4,false,Rx,0,8,B6,18,0D,19,7D,63,02,21,
379822170,000000DA,false,Rx,0,8,78,80,A0,80,9A,85,04,00,
379833174,000000C2,false,Rx,0,8,78,80,A0,80,9E,85,04,00,
379854858,000000DC,false,Rx,0,8,DC,18,62,19,1B,64,02,21,
379855806,00000280,false,Rx,0,8,14,CB,65,65,00,89,52,00,
379856898,00000280,false,Rx,0,8,04,0E,F8,00,00,00,00,00,
379858733,00000006,false,Rx,0,4,25,00,00,00,00,00,00,00,
379865131,000000A2,false,Rx,0,8,78,80,C7,80,9D,85,04,10,
379866135,000000C4,false,Rx,0,8,9F,18,2A,19,6D,63,02,23,
379870935,000000AA,false,Rx,0,8,78,80,A0,80,9C,85,04,00,
379874315,0000008C,false,Rx,0,8,EE,18,64,19,42,64,02,20,
379890524,000000CC,false,Rx,0,8,DE,18,22,19,DD,63,02,20,
379901416,00000092,false,Rx,0,8,00,80,C7,80,FC,84,04,50,
379903799,000000AC,false,Rx,0,8,B6,18,17,19,74,63,02,23,
379912076,000000BC,false,Rx,0,8,B2,18,22,19,9E,63,02,21,
379928375,000000B2,false,Rx,0,8,78,80,A0,80,76,85,04,00,
379930810,000000D2,false,Rx,0,8,78,80,C8,80,9C,85,04,20,
379934278,00000094,false,Rx,0,8,C3,18,2A,19,9D,63,02,23,
379956124,00000280,false,Rx,0,8,14,CB,65,65,00,89,52,00,
379957205,00000280,false,Rx,0,8,04,0E,F8,00,00,00,00,00,
379961201,000000B4,false,Rx,0,8,AF,18,1F,19,53,63,02,21,
379963670,000000D4,false,Rx,0,8,B9,18,2B,19,B0,63,02,23,
379972961,0000008A,false,Rx,0,8,78,80,A0,80,9D,85,04,00,
379989156,000000CA,false,Rx,0,8,78,80,C8,80,9F,85,04,10,
380010631,000000BA,false,Rx,0,8,78,80,A0,80,9D,85,04,00,
380013147,00000180,false,Rx,0,1,01,00,00,00,00,00,00,00,
380039446,0000009A,false,Rx,0,8,78,80,A0,80,9C,85,04,00,
380056870,00000280,false,Rx,0,8,14,CB,65,65,00,89,12,00,
380057947,00000280,false,Rx,0,8,04,0E,F8,00,00,00,00,00,
380072333,0000009C,false,Rx,0,8,BE,18,09,19,81,63,02,21,
380157661,00000280,false,Rx,0,8,14,CB,65,65,00,89,12,00,
380158724,00000280,false,Rx,0,8,04,0E,F8,00,00,00,00,00,
380234073,000000A2,false,Rx,0,8,78,80,C7,80,9D,85,04,10,
380258502,00000280,false,Rx,0,8,14,CB,65,65,00,89,52,00,
380259575,00000280,false,Rx,0,8,04,0E,F8,00,00,00,00,00,
380266930,000000A4,false,Rx,0,8,B7,18,0F,19,7E,63,02,21,
380278060,0000010A,false,Rx,0,5,00,00,64,00,00,00,00,00,
380279057,0000010C,false,Rx,0,3,00,00,00,00,00,00,00,00,
380330191,000000B2,false,Rx,0,8,78,80,A0,80,76,85,04,00,
380341942,0000008A,false,Rx,0,8,78,80,A0,80,9D,85,04,00,
380358017,000000CA,false,Rx,0,8,78,80,C8,80,9F,85,04,10,
380359256,00000280,false,Rx,0,8,14,CB,65,65,00,89,52,00,
380360363,00000280,false,Rx,0,8,04,0E,F8,00,00,00,00,00,
380363041,000000B4,false,Rx,0,8,AE,18,20,19,51,63,02,21,
380374645,0000008C,false,Rx,0,8,EF,18,5A,19,44,64,02,23,
380379594,000000BA,false,Rx,0,8,78,80,A0,80,9D,85,04,00,
380390883,000000CC,false,Rx,0,8,DD,18,24,19,DF,63,02,20,
380412476,000000BC,false,Rx,0,8,B4,18,21,19,9E,63,02,21,
380420154,000000DA,false,Rx,0,8,78,80,A0,80,9A,85,04,00,
380430809,000000D2,false,Rx,0,8,78,80,C7,80,9C,85,04,40,
380431807,000000C2,false,Rx,0,8,78,80,A0,80,9E,85,04,00,
380433956,00000094,false,Rx,0,8,C3,18,29,19,9A,63,02,23,
380453006,000000DC,false,Rx,0,8,DE,18,66,19,22,64,02,21,
380460083,00000280,false,Rx,0,8,14,CB,65,65,00,89,12,00,
380461108,00000280,false,Rx,0,5,06,10,07,84,1A,00,00,00,
380463654,000000D4,false,Rx,0,8,B8,18,2B,19,AE,63,02,23,
380464657,000000C4,false,Rx,0,8,A3,18,2C,19,71,63,02,23,
380469157,000000AA,false,Rx,0,8,78,80,A0,80,9C,85,04,00,
380502017,000000AC,false,Rx,0,8,B8,18,13,19,71,63,02,23,
380532525,00000092,false,Rx,0,8,00,80,C8,80,FC,84,04,10,
380535028,00000180,false,Rx,0,1,01,00,00,00,00,00,00,00,
380539478,0000009A,false,Rx,0,8,78,80,A0,80,9C,85,04,00,
380560811,00000280,false,Rx,0,8,14,CB,65,65,00,89,52,00,
380561868,00000280,false,Rx,0,8,04,0E,F8,00,00,00,00,00,
380572311,0000009C,false,Rx,0,8,BD,18,0B,19,86,63,02,21,
380639456,00000380,false,Rx,0,6,09,46,00,00,00,01,00,00,
380661680,00000280,false,Rx,0,8,14,CB,65,65,00,89,52,00,
380662704,00000280,false,Rx,0,5,10,00,00,00,00,00,00,00,
380738956,00000380,false,Rx,0,7,02,00,02,00,00,00,1B,00,
380762455,00000280,false,Rx,0,8,14,CB,65,65,00,89,52,00,
380763506,00000280,false,Rx,0,8,04,0E,F8,00,00,00,00,00,
380766583,000000A4,false,Rx,0,8,B3,18,0D,19,7B,63,02,21,
380821968,000000DA,false,Rx,0,8,78,80,A0,80,9A,85,04,00,
380830244,000000B2,false,Rx,0,8,78,80,A0,80,9E,85,04,00,
380833012,000000C2,false,Rx,0,8,78,80,A0,80,9E,85,04,00,
380854824,000000DC,false,Rx,0,8,DF,18,64,19,22,64,02,21,
380858018,000000CA,false,Rx,0,8,78,80,A0,80,9F,85,04,00,
380863077,000000B4,false,Rx,0,8,AD,18,1E,19,51,63,02,21,
380864067,00000280,false,Rx,0,8,14,CB,65,65,00,89,52,00,
380865138,00000280,false,Rx,0,8,04,0E,F8,00,00,00,00,00,
380866148,000000A2,false,Rx,0,8,78,80,A0,80,9D,85,04,00,
380867163,000000C4,false,Rx,0,8,A4,18,29,19,71,63,02,23,
380870967,000000AA,false,Rx,0,8,78,80,A0,80,9C,85,04,00,
380890854,000000CC,false,Rx,0,8,DF,18,26,19,E2,63,02,20,
380903815,000000AC,false,Rx,0,8,B9,18,13,19,6F,63,02,23,
380940012,0000008A,false,Rx,0,8,78,80,C8,80,9D,85,04,80,
380964058,00000280,false,Rx,0,8,14,CB,65,65,00,89,12,00,
380965130,00000280,false,Rx,0,8,04,0E,F8,00,00,00,00,00,
380966414,00000006,false,Rx,0,4,25,00,00,00,00,00,00,00,
380972866,0000008C,false,Rx,0,8,EB,18,5B,19,38,64,02,21,
380977801,000000BA,false,Rx,0,8,78,80,A0,80,9D,85,04,00,
380999645,00000092,false,Rx,0,8,00,80,C8,80,FC,84,04,10,
381010679,000000BC,false,Rx,0,8,B4,18,23,19,A0,63,02,21,
381029026,000000D2,false,Rx,0,8,78,80,A0,80,9C,85,04,00,
381032487,00000094,false,Rx,0,8,C0,18,23,19,97,63,02,23,
381061885,000000D4,false,Rx,0,8,B7,18,28,19,AB,63,02,23,
381064814,00000280,false,Rx,0,8,14,CB,65,65,00,89,11,00,
381065885,00000280,false,Rx,0,8,04,0E,F8,00,00,00,00,00,
381137692,0000009A,false,Rx,0,8,78,80,A0,80,9C,85,04,00,
381165666,00000280,false,Rx,0,8,14,CB,65,65,00,89,52,00,
381166794,00000280,false,Rx,0,8,04,0E,F8,00,00,00,00,00,
381170536,0000009C,false,Rx,0,8,BD,18,0A,19,82,63,02,21,
381174562,00000180,false,Rx,0,1,01,00,00,00,00,00,00,00,
381234100,000000A2,false,Rx,0,8,78,80,A0,80,9D,85,04,00,
381266463,00000280,false,Rx,0,8,14,CB,65,65,00,89,12,00,
381267486,000000A4,false,Rx,0,8,B5,18,0B,19,76,63,02,21,
381268509,00000280,false,Rx,0,8,04,0E,F8,00,00,00,00,00,
381288174,0000010A,false,Rx,0,5,00,00,64,00,00,00,00,00,
381289208,0000010C,false,Rx,0,3,00,00,00,00,00,00,00,00,
381330378,000000B2,false,Rx,0,8,78,80,A0,80,76,85,04,00,
381341948,0000008A,false,Rx,0,8,78,80,C8,80,9D,85,04,80,
381358021,000000CA,false,Rx,0,8,78,80,C8,80,9F,85,04,30,
381363076,000000B4,false,Rx,0,8,AF,18,1F,19,52,63,02,21,
381367282,00000280,false,Rx,0,8,14,CB,65,65,00,89,52,00,
381368324,00000280,false,Rx,0,8,04,0E,F8,00,00,00,00,00,
381374647,0000008C,false,Rx,0,8,F1,18,57,19,3C,64,02,21,
381379625,000000BA,false,Rx,0,8,78,80,A0,80,9D,85,04,00,
381390883,000000CC,false,Rx,0,8,DF,18,27,19,E5,63,02,20,
381401472,00000092,false,Rx,0,8,00,80,C8,80,FC,84,04,10,
381412474,000000BC,false,Rx,0,8,B5,18,23,19,9E,63,02,21,
381420180,000000DA,false,Rx,0,8,78,80,A0,80,9A,85,04,00,
381430828,000000D2,false,Rx,0,8,78,80,A0,80,9C,85,04,00,
381431850,000000C2,false,Rx,0,8,78,80,A0,80,9E,85,04,00,
381434324,00000094,false,Rx,0,8,C0,18,28,19,A1,63,02,23,
381452990,000000DC,false,Rx,0,8,DE,18,63,19,1D,64,02,21,
381463640,000000D4,false,Rx,0,8,B7,18,29,19,AB,63,02,23,
381464664,000000C4,false,Rx,0,8,A2,18,28,19,6F,63,02,23,
381468011,00000280,false,Rx,0,8,14,CB,65,65,00,89,52,00,
381469044,00000280,false,Rx,0,5,06,10,07,84,1A,00,00,00,
381470042,000000AA,false,Rx,0,8,78,80,A0,80,9C,85,04,00,
381501991,000000AC,false,Rx,0,8,BB,18,15,19,73,63,02,23,
381539497,0000009A,false,Rx,0,8,78,80,A0,80,9C,85,04,00,
381562813,00000102,false,Rx,0,8,00,00,00,74,84,76,71,00,
381563815,00000104,false,Rx,0,8,00,7F,00,1A,00,21,00,00,
381564843,0000010E,false,Rx,0,8,00,00,00,00,00,00,00,00,
381568956,00000280,false,Rx,0,8,14,CB,65,65,00,89,52,00,
381569993,00000280,false,Rx,0,8,04,0E,F8,00,00,00,00,00,
381572458,0000009C,false,Rx,0,8,BE,18,09,19,82,63,02,21,
381575651,00000180,false,Rx,0,1,01,00,00,00,00,00,00,00,
381642661,00000380,false,Rx,0,6,09,46,00,00,00,01,00,00,
381662633,00000102,false,Rx,0,8,00,00,00,74,84,76,71,00,
381663633,00000104,false,Rx,0,8,00,7F,00,19,00,22,18,00,
381664633,0000010E,false,Rx,0,8,00,00,00,00,00,00,00,00,
381669657,00000280,false,Rx,0,8,14,CB,65,65,00,89,52,00,
381670660,00000280,false,Rx,0,5,10,00,00,00,00,00,00,00,
381742100,00000380,false,Rx,0,7,02,00,02,00,00,00,1F,00,
381762618,00000102,false,Rx,0,8,00,00,00,74,84,76,71,00,
381763619,00000104,false,Rx,0,8,00,7F,00,19,00,23,0F,00,
381764619,0000010E,false,Rx,0,8,00,00,00,00,00,00,00,00,
381770393,00000280,false,Rx,0,8,14,CB,65,65,00,89,11,00,
381771493,00000280,false,Rx,0,8,04,0E,F8,00,00,00,00,00,
381821963,000000DA,false,Rx,0,8,78,80,A0,80,9A,85,04,00,
381830239,000000B2,false,Rx,0,8,78,80,A0,80,9E,85,04,00,
381832308,000000A2,false,Rx,0,8,78,80,A0,80,9D,85,04,00,
381833320,000000C2,false,Rx,0,8,78,80,A0,80,9E,85,04,00,
381854824,000000DC,false,Rx,0,8,DE,18,64,19,20,64,02,21,
381862622,00000102,false,Rx,0,8,00,00,00,74,84,76,71,00,
381863621,000000B4,false,Rx,0,8,AE,18,1F,19,52,63,02,21,
381864655,0000010E,false,Rx,0,8,00,00,00,00,00,00,00,00,
381865673,000000A4,false,Rx,0,8,B7,18,0E,19,7C,63,02,21,
381866645,000000C4,false,Rx,0,8,A1,18,2B,19,6D,63,02,23,
381867679,00000104,false,Rx,0,8,00,7F,00,1A,00,24,0E,00,
381870952,000000AA,false,Rx,0,8,78,80,A0,80,9C,85,04,00,
381871945,00000280,false,Rx,0,8,14,CB,65,65,00,88,12,03,
381873053,00000280,false,Rx,0,8,04,0E,F8,00,00,00,00,00,
381879673,000000BA,false,Rx,0,8,78,80,A0,80,9D,85,04,00,
381903825,000000AC,false,Rx,0,8,B8,18,11,19,6D,63,02,23,
381912519,000000BC,false,Rx,0,8,B7,18,21,19,A0,63,02,21,
381933971,00000094,false,Rx,0,8,C0,18,29,19,9C,63,02,23,
381940016,0000008A,false,Rx,0,8,78,80,A0,80,9D,85,04,00,
381956255,000000CA,false,Rx,0,8,78,80,A0,80,9F,85,04,00,
381962622,00000102,false,Rx,0,8,00,00,64,74,84,76,71,00,
381963652,000000D4,false,Rx,0,8,B9,18,29,19,AE,63,02,23,
381964647,0000010E,false,Rx,0,8,00,00,00,00,00,00,00,00,
381965680,00000104,false,Rx,0,8,00,7F,00,1A,00,25,0F,00,
381972048,00000280,false,Rx,0,8,14,CB,65,65,00,88,52,03,
381973046,0000008C,false,Rx,0,8,EB,18,5A,19,3A,64,02,21,
381974049,00000280,false,Rx,0,8,04,0E,F8,00,00,00,00,00,
381975397,00000006,false,Rx,0,4,25,00,00,00,00,00,00,00,
381989072,000000CC,false,Rx,0,8,DE,18,25,19,E1,63,02,20,
382032548,00000092,false,Rx,0,8,00,80,C8,80,FC,84,04,10,
382039523,0000009A,false,Rx,0,8,78,80,A0,80,9C,85,04,00,
382061927,000000D2,false,Rx,0,8,78,80,A0,80,9C,85,04,00,
382062926,00000102,false,Rx,0,8,00,00,64,74,84,76,71,00,
382063966,00000104,false,Rx,0,8,00,7F,00,19,00,26,0E,00,
382064966,0000010E,false,Rx,0,8,00,00,00,00,00,00,00,00,
382072395,0000009C,false,Rx,0,8,C1,18,0B,19,87,63,02,21,
382073422,00000280,false,Rx,0,8,14,CB,65,65,00,88,12,03,
382074382,00000280,false,Rx,0,8,04,0E,F8,00,00,00,00,00,
382076340,00000180,false,Rx,0,1,01,00,00,00,00,00,00,00,
382162637,00000102,false,Rx,0,8,00,00,64,74,84,76,71,00,
382163634,00000104,false,Rx,0,8,00,7F,00,19,00,27,0E,00,
382164658,0000010E,false,Rx,0,8,00,00,00,00,00,00,00,00,
382173607,00000280,false,Rx,0,8,14,CB,65,65,00,89,52,00,
382174712,00000280,false,Rx,0,8,04,0E,F8,00,00,00,00,00,
382262652,00000102,false,Rx,0,8,00,00,64,74,84,76,71,00,
382263651,00000104,false,Rx,0,8,00,7F,00,19,00,28,0E,00,
382264670,0000010E,false,Rx,0,8,00,00,00,00,00,00,00,00,
382266651,000000A4,false,Rx,0,8,B7,18,10,19,83,63,02,21,
382274376,00000280,false,Rx,0,8,14,CB,65,65,00,89,11,00,
382275490,00000280,false,Rx,0,8,04,0E,F8,00,00,00,00,00,
382297866,0000010A,false,Rx,0,5,00,00,64,00,00,00,00,00,
382298859,0000010C,false,Rx,0,3,00,00,00,00,00,00,00,00,
382322033,000000DA,false,Rx,0,8,78,80,A0,80,9A,85,04,00,
382330276,000000B2,false,Rx,0,8,78,80,A0,80,76,85,04,00,
382341877,0000008A,false,Rx,0,8,78,80,A0,80,9D,85,04,00,
382354855,000000DC,false,Rx,0,8,DE,18,63,19,1E,64,02,21,
382358034,000000CA,false,Rx,0,8,78,80,A0,80,9F,85,04,00,
382362710,00000102,false,Rx,0,8,00,00,64,74,84,76,71,00,
382363715,000000B4,false,Rx,0,8,AE,18,20,19,53,63,02,21,
382364726,0000010E,false,Rx,0,8,00,00,00,00,00,00,00,00,
382365736,000000A2,false,Rx,0,8,78,80,A0,80,9D,85,04,00,
382366737,00000104,false,Rx,0,8,00,7F,00,19,00,29,0E,00,
382374661,0000008C,false,Rx,0,8,F3,18,53,19,3D,64,02,23,
382375697,00000280,false,Rx,0,8,14,CB,65,65,00,88,52,03,
382376684,00000280,false,Rx,0,8,04,0E,F8,00,00,00,00,00,
382390909,000000CC,false,Rx,0,8,DF,18,25,19,E0,63,02,20,
382430861,000000D2,false,Rx,0,8,78,80,A0,80,9C,85,04,00,
382431885,000000C2,false,Rx,0,8,78,80,A0,80,9E,85,04,00,
382462633,00000102,false,Rx,0,8,00,00,64,74,84,76,71,00,
382463652,00000104,false,Rx,0,8,00,7F,00,1A,00,2A,0E,00,
382464652,000000C4,false,Rx,0,8,A1,18,29,19,68,63,02,23,
382465653,000000D4,false,Rx,0,8,B7,18,28,19,AB,63,02,23,
382466654,0000010E,false,Rx,0,8,00,00,00,00,00,00,00,00,
382469183,000000AA,false,Rx,0,8,78,80,A0,80,9C,85,04,00,
382476065,00000280,false,Rx,0,8,14,CB,65,65,00,89,52,00,
382477055,00000280,false,Rx,0,5,06,10,07,84,1A,00,00,00,
382478057,000000BA,false,Rx,0,8,78,80,A0,80,9D,85,04,00,
382499703,00000092,false,Rx,0,8,00,80,C8,80,FC,84,04,10,
382502024,000000AC,false,Rx,0,8,B8,18,13,19,6B,63,02,23,
382510728,000000BC,false,Rx,0,8,B8,18,23,19,A5,63,02,21,
382532529,00000094,false,Rx,0,8,C2,18,29,19,9D,63,02,23,
382562609,00000102,false,Rx,0,8,00,00,64,74,84,76,71,00,
382563604,00000104,false,Rx,0,8,00,7F,00,1A,00,2B,0E,00,
382564605,0000010E,false,Rx,0,8,00,00,00,00,00,00,00,00,
382576955,00000280,false,Rx,0,8,14,CB,65,65,00,89,52,00,
382577915,00000280,false,Rx,0,8,04,0E,F8,00,00,00,00,00,
382637767,0000009A,false,Rx,0,8,78,80,A0,80,9C,85,04,00,
382645714,00000380,false,Rx,0,6,09,46,00,00,00,01,00,00,
382662739,00000102,false,Rx,0,8,00,00,64,74,84,76,71,00,
382663762,00000104,false,Rx,0,8,00,7F,00,19,00,2C,0F,00,
382664768,0000010E,false,Rx,0,8,00,00,00,00,00,00,00,00,
382670613,0000009C,false,Rx,0,8,BD,18,09,19,7D,63,02,21,
382677589,00000280,false,Rx,0,8,14,CB,65,65,00,89,12,00,
382678616,00000280,false,Rx,0,5,10,00,00,00,00,00,00,00,
382734168,000000A2,false,Rx,0,8,78,80,A0,80,9D,85,04,00,
382745260,00000380,false,Rx,0,7,02,00,02,00,00,00,23,00,
382762600,00000102,false,Rx,0,8,00,00,64,74,84,76,71,00,
382763630,00000104,false,Rx,0,8,00,7F,00,19,00,2D,0E,00,
382764632,0000010E,false,Rx,0,8,00,00,00,00,00,00,00,00,
382765632,00000180,false,Rx,0,1,01,00,00,00,00,00,00,00,
382766982,000000A4,false,Rx,0,8,B8,18,0D,19,7C,63,02,21,
382778432,00000280,false,Rx,0,8,14,CB,65,65,00,89,52,00,
382779507,00000280,false,Rx,0,8,04,0E,F8,00,00,00,00,00,
382833146,000000C2,false,Rx,0,8,78,80,A0,80,9E,85,04,00,
382842010,0000008A,false,Rx,0,8,78,80,A0,80,9D,85,04,00,
382862611,00000102,false,Rx,0,8,00,00,64,74,84,76,71,00,
382863608,00000104,false,Rx,0,8,00,7F,00,1A,00,2E,0E,00,
382864632,0000010E,false,Rx,0,8,00,00,00,00,00,00,00,00,
382865866,000000C4,false,Rx,0,8,A1,18,2C,19,6F,63,02,23,
382870968,000000AA,false,Rx,0,8,78,80,A0,80,9C,85,04,00,
382874691,0000008C,false,Rx,0,8,F3,18,53,19,3D,64,02,21,
382879223,00000280,false,Rx,0,8,14,CB,65,65,00,89,52,00,
382880217,000000BA,false,Rx,0,8,78,80,A0,80,9D,85,04,00,
382881240,00000280,false,Rx,0,8,04,0E,F8,00,00,00,00,00,
382901506,00000092,false,Rx,0,8,00,80,C8,80,FC,84,04,10,
382903843,000000AC,false,Rx,0,8,B6,18,13,19,6F,63,02,23,
382912542,000000BC,false,Rx,0,8,B7,18,21,19,A1,63,02,21,
382920217,000000DA,false,Rx,0,8,78,80,A0,80,9A,85,04,00,
382928392,000000B2,false,Rx,0,8,78,80,A0,80,76,85,04,00,
382930842,000000D2,false,Rx,0,8,78,80,C7,80,9C,85,04,50,
382934368,00000094,false,Rx,0,8,C1,18,28,19,9B,63,02,23,
382953061,000000DC,false,Rx,0,8,DE,18,63,19,1F,64,02,21,
382956305,000000CA,false,Rx,0,8,78,80,C8,80,9F,85,04,10,
382961239,000000B4,false,Rx,0,8,AE,18,1E,19,52,63,02,21,
382962734,00000102,false,Rx,0,8,00,00,64,74,84,76,71,00,
382963734,00000104,false,Rx,0,8,00,7F,00,19,00,2F,0E,00,
382964734,000000D4,false,Rx,0,8,B8,18,28,19,AC,63,02,23,
382965759,0000010E,false,Rx,0,8,00,00,00,00,00,00,00,00,
382979985,00000280,false,Rx,0,8,14,CB,65,65,00,89,52,00,
382981062,00000280,false,Rx,0,8,04,0E,F8,00,00,00,00,00,
382989108,000000CC,false,Rx,0,8,DB,18,28,19,E2,63,02,20,
383039535,0000009A,false,Rx,0,8,78,80,A0,80,9C,85,04,00,
383062734,00000102,false,Rx,0,8,00,00,64,74,84,76,71,00,
383063735,00000104,false,Rx,0,8,00,7F,00,19,00,20,0E,00,
383064736,0000010E,false,Rx,0,8,00,00,00,00,00,00,00,00,
383072416,0000009C,false,Rx,0,8,C0,18,0A,19,83,63,02,21,
383080737,00000280,false,Rx,0,8,14,CB,65,65,00,89,52,00,
383081863,00000280,false,Rx,0,8,04,0E,F8,00,00,00,00,00,
383083811,00000006,false,Rx,0,4,25,00,00,00,00,00,00,00,
383162748,00000102,false,Rx,0,8,00,00,64,74,84,76,71,00,
383163769,00000104,false,Rx,0,8,00,7F,00,19,00,21,0E,00,
383164772,0000010E,false,Rx,0,8,00,00,00,00,00,00,00,00,
383181612,00000280,false,Rx,0,8,14,CB,65,65,00,89,52,00,
383182713,00000280,false,Rx,0,8,04,0E,F8,00,00,00,00,00,
383262601,00000102,false,Rx,0,8,00,00,64,74,84,76,71,00,
383263589,00000104,false,Rx,0,8,00,7F,00,1A,00,22,0E,00,
383264589,0000010E,false,Rx,0,8,00,00,00,00,00,00,00,00,
383282448,00000280,false,Rx,0,8,14,CB,65,65,00,89,52,00,
383283513,00000280,false,Rx,0,8,04,0E,F8,00,00,00,00,00,
383308167,0000010A,false,Rx,0,5,00,00,64,00,00,00,00,00,
383309163,0000010C,false,Rx,0,3,00,00,00,00,00,00,00,00,
383322020,000000DA,false,Rx,0,8,78,80,A0,80,9A,85,04,00,
383330264,000000B2,false,Rx,0,8,78,80,A0,80,76,85,04,00,
383332339,000000A2,false,Rx,0,8,78,80,A0,80,9D,85,04,00,
383334915,00000180,false,Rx,0,1,01,00,00,00,00,00,00,00,
383354834,000000DC,false,Rx,0,8,DE,18,65,19,20,64,02,21,
383358073,000000CA,false,Rx,0,8,78,80,C8,80,9F,85,04,10,
383363090,000000B4,false,Rx,0,8,AE,18,1F,19,53,63,02,21,
383365250,000000A4,false,Rx,0,8,B8,18,0D,19,7C,63,02,21,
383369641,00000102,false,Rx,0,8,00,00,64,74,84,76,71,00,
383370652,00000104,false,Rx,0,8,00,7F,00,1A,00,23,0E,00,
383371641,0000010E,false,Rx,0,8,00,00,00,00,00,00,00,00,
383379748,000000BA,false,Rx,0,8,78,80,A0,80,9D,85,04,00,
383383172,00000280,false,Rx,0,8,14,CB,65,65,00,89,52,00,
383384244,00000280,false,Rx,0,8,04,0E,F8,00,00,00,00,00,
383390890,000000CC,false,Rx,0,8,DA,18,25,19,DC,63,02,20,
383401516,00000092,false,Rx,0,8,00,80,C7,80,FC,84,04,50,
383412596,000000BC,false,Rx,0,8,B3,18,22,19,9D,63,02,21,
383431262,000000C2,false,Rx,0,8,78,80,A0,80,9E,85,04,00,
383434350,00000094,false,Rx,0,8,C1,18,2A,19,9E,63,02,23,
383440068,0000008A,false,Rx,0,8,78,80,A0,80,76,85,04,00,
383462666,00000102,false,Rx,0,8,00,00,64,74,84,76,71,00,
383463666,00000104,false,Rx,0,8,00,7F,00,1A,00,24,0E,00,
383464693,000000C4,false,Rx,0,8,A1,18,2B,19,6A,63,02,23,
383465700,0000010E,false,Rx,0,8,00,00,00,00,00,00,00,00,
383469218,000000AA,false,Rx,0,8,78,80,A0,80,9C,85,04,00,
383472919,0000008C,false,Rx,0,8,F5,18,69,19,54,64,02,20,
383484017,00000280,false,Rx,0,8,14,CB,65,65,00,89,52,00,
383485039,00000280,false,Rx,0,5,06,10,07,84,1A,00,00,00,
383502037,000000AC,false,Rx,0,8,BD,18,16,19,71,63,02,23,
383529110,000000D2,false,Rx,0,8,78,80,A0,80,9C,85,04,00,
383561917,000000D4,false,Rx,0,8,B6,18,26,19,A9,63,02,23,
383562943,00000102,false,Rx,0,8,00,00,64,74,84,76,71,00,
383563942,00000104,false,Rx,0,8,00,7F,00,1A,00,25,0E,00,
383564942,0000010E,false,Rx,0,8,00,00,00,00,00,00,00,00,
383584792,00000280,false,Rx,0,8,14,CB,65,65,00,89,52,00,
383585867,00000280,false,Rx,0,8,04,0E,F8,00,00,00,00,00,
383637776,0000009A,false,Rx,0,8,78,80,A0,80,9C,85,04,00,
383648850,00000380,false,Rx,0,6,09,46,00,00,00,01,00,00,
383662711,00000102,false,Rx,0,8,00,00,64,74,84,76,71,00,
383663734,00000104,false,Rx,0,8,00,7F,00,1A,00,26,0E,00,
383664744,0000010E,false,Rx,0,8,00,00,00,00,00,00,00,00,
383670594,0000009C,false,Rx,0,8,C1,18,0B,19,85,63,02,21,
383685584,00000280,false,Rx,0,8,14,CB,65,65,00,89,52,00,
383686569,00000280,false,Rx,0,5,10,00,00,00,00,00,00,00,
383734151,000000A2,false,Rx,0,8,78,80,A0,80,9D,85,04,00,
383748370,00000380,false,Rx,0,7,02,00,02,00,00,00,27,00,
383762619,00000102,false,Rx,0,8,00,00,64,74,84,76,71,00,
383763621,00000104,false,Rx,0,8,00,7F,00,1A,00,27,0E,00,
383764648,0000010E,false,Rx,0,8,00,00,00,00,00,00,00,00,
383767018,000000A4,false,Rx,0,8,B7,18,10,19,83,63,02,21,
383786396,00000280,false,Rx,0,8,14,CB,65,65,00,88,12,03,
383787495,00000280,false,Rx,0,8,04,0E,F8,00,00,00,00,00,
383822052,000000DA,false,Rx,0,8,78,80,A0,80,9A,85,04,00,
383830255,000000B2,false,Rx,0,8,78,80,A0,80,9E,85,04,00,
383833044,000000C2,false,Rx,0,8,78,80,A0,80,9E,85,04,00,
383834041,00000180,false,Rx,0,1,01,00,00,00,00,00,00,00,
383841846,0000008A,false,Rx,0,8,78,80,A0,80,76,85,04,00,
383854872,000000DC,false,Rx,0,8,DE,18,63,19,1E,64,02,21,
383862629,00000102,false,Rx,0,8,00,00,64,74,84,76,71,00,
383863645,000000B4,false,Rx,0,8,AF,18,1F,19,53,63,02,21,
383864646,0000010E,false,Rx,0,8,00,00,00,00,00,00,00,00,
383865669,00000104,false,Rx,0,8,00,7F,00,1A,00,28,0E,00,
383866679,000000C4,false,Rx,0,8,A3,18,28,19,6E,63,02,23,
383871006,000000AA,false,Rx,0,8,78,80,A0,80,9C,85,04,00,
383874728,0000008C,false,Rx,0,8,F7,18,69,19,52,64,02,23,
383887215,00000280,false,Rx,0,8,14,CB,65,65,00,89,52,00,
383888311,00000280,false,Rx,0,8,04,0E,F8,00,00,00,00,00,
383903870,000000AC,false,Rx,0,8,BC,18,14,19,76,63,02,23,
383912255,000000BC,false,Rx,0,8,B8,18,21,19,A2,63,02,21,
383930897,000000D2,false,Rx,0,8,78,80,A0,80,9C,85,04,00,
383956308,000000CA,false,Rx,0,8,78,80,A0,80,9F,85,04,00,
383962623,00000102,false,Rx,0,8,00,00,64,74,84,76,71,00,
383963647,00000104,false,Rx,0,8,00,7F,00,19,00,29,0E,00,
383964637,000000D4,false,Rx,0,8,B8,18,2A,19,AF,63,02,23,
383965647,0000010E,false,Rx,0,8,00,00,00,00,00,00,00,00,
383987973,00000280,false,Rx,0,8,14,CB,65,65,00,89,51,00,
383989081,00000280,false,Rx,0,8,04,0E,F8,00,00,00,00,00,
383990062,000000CC,false,Rx,0,8,DC,18,28,19,E1,63,02,20,
383999753,00000092,false,Rx,0,8,00,80,A0,80,FC,84,04,10,
384010824,000000BA,false,Rx,0,8,78,80,A0,80,9D,85,04,00,
384032623,00000094,false,Rx,0,8,C4,18,28,19,9C,63,02,23,
384039548,0000009A,false,Rx,0,8,78,80,A0,80,9C,85,04,00,
384062649,00000102,false,Rx,0,8,00,00,64,74,84,76,71,00,
384063649,00000104,false,Rx,0,8,00,7F,00,1A,00,2A,0E,00,
384064649,0000010E,false,Rx,0,8,00,00,00,00,00,00,00,00,
384072399,0000009C,false,Rx,0,8,C0,18,0B,19,85,63,02,21,
384088771,00000280,false,Rx,0,8,14,CB,65,65,00,88,12,03,
384089824,00000280,false,Rx,0,8,04,0E,F8,00,00,00,00,00,
384091100,00000006,false,Rx,0,4,25,00,00,00,00,00,00,00,
384162655,00000102,false,Rx,0,8,00,00,64,74,84,76,71,00,
384163674,00000104,false,Rx,0,8,00,7F,00,19,00,2B,0E,00,
384164676,0000010E,false,Rx,0,8,00,00,00,00,00,00,00,00,
384189601,00000280,false,Rx,0,8,14,CB,65,65,00,89,52,00,
384190701,00000280,false,Rx,0,8,04,0E,F8,00,00,00,00,00,
384234174,000000A2,false,Rx,0,8,78,80,C7,80,9D,85,04,10,
384262701,00000102,false,Rx,0,8,00,00,64,74,84,76,71,00,
384263701,00000104,false,Rx,0,8,00,7F,00,19,00,2C,0E,00,
384264726,0000010E,false,Rx,0,8,00,00,00,00,00,00,00,00,
384267052,000000A4,false,Rx,0,8,B8,18,0E,19,7E,63,02,21,
384290327,00000280,false,Rx,0,8,14,CB,65,65,00,89,51,00,
384291428,00000280,false,Rx,0,8,04,0E,F8,00,00,00,00,00,
384321452,0000010A,false,Rx,0,5,00,00,64,00,00,00,00,00,
384322444,0000010C,false,Rx,0,3,00,00,00,00,00,00,00,00,
384330251,000000B2,false,Rx,0,8,78,80,A0,80,76,85,04,00,
384358079,000000CA,false,Rx,0,8,78,80,A0,80,9F,85,04,00,
384362678,00000102,false,Rx,0,8,00,00,64,74,84,76,71,00,
384363677,000000B4,false,Rx,0,8,AE,18,20,19,54,63,02,21,
384364711,0000010E,false,Rx,0,8,00,00,00,00,00,00,00,00,
384365733,00000104,false,Rx,0,8,00,7F,00,1A,00,2D,0E,00,
384379782,000000BA,false,Rx,0,8,78,80,A0,80,9D,85,04,00,
384390932,000000CC,false,Rx,0,8,DC,18,26,19,DD,63,02,20,
384391929,00000280,false,Rx,0,8,14,CB,65,65,00,89,11,00,
384392929,00000280,false,Rx,0,8,04,0E,F8,00,00,00,00,00,
384401556,00000092,false,Rx,0,8,00,80,A0,80,FC,84,04,10,
384412652,000000BC,false,Rx,0,8,B4,18,22,19,9E,63,02,21,
384420253,000000DA,false,Rx,0,8,78,80,A0,80,9A,85,04,00,
384422528,00000180,false,Rx,0,1,01,00,00,00,00,00,00,00,
384431273,000000C2,false,Rx,0,8,78,80,C8,80,9E,85,04,50,
384434427,00000094,false,Rx,0,8,C2,18,28,19,9A,63,02,23,
384440104,0000008A,false,Rx,0,8,78,80,A0,80,9D,85,04,00,
384453080,000000DC,false,Rx,0,8,DE,18,65,19,20,64,02,21,
384462704,00000102,false,Rx,0,8,00,00,64,74,84,76,71,00,
384463733,00000104,false,Rx,0,8,00,7F,00,1A,00,2E,0E,00,
384464729,000000C4,false,Rx,0,8,A2,18,2A,19,6B,63,02,23,
384465729,0000010E,false,Rx,0,8,00,00,00,00,00,00,00,00,
384469224,000000AA,false,Rx,0,8,78,80,A0,80,9C,85,04,00,
384472927,0000008C,false,Rx,0,8,EF,18,67,19,4F,64,02,20,
384491930,00000280,false,Rx,0,8,14,CB,65,65,00,89,11,00,
384492954,00000280,false,Rx,0,5,06,10,07,84,1A,00,00,00,
384502081,000000AC,false,Rx,0,8,BD,18,16,19,72,63,02,23,
384529106,000000D2,false,Rx,0,8,78,80,C8,80,9C,85,04,20,
384539580,0000009A,false,Rx,0,8,78,80,A0,80,9C,85,04,00,
384561956,000000D4,false,Rx,0,8,BA,18,2B,19,AE,63,02,23,
384562980,00000102,false,Rx,0,8,00,00,64,74,84,76,71,00,
384563980,00000104,false,Rx,0,8,00,7F,00,19,00,2F,0E,00,
384565002,0000010E,false,Rx,0,8,00,00,00,00,00,00,00,00,
384572456,0000009C,false,Rx,0,8,BE,18,08,19,83,63,02,21,
384592779,00000280,false,Rx,0,8,14,CB,65,65,00,89,52,00,
384593857,00000280,false,Rx,0,8,04,0E,F8,00,00,00,00,00,
384651963,00000380,false,Rx,0,6,09,46,00,00,00,01,00,00,
384662590,00000102,false,Rx,0,8,00,00,64,74,84,76,71,00,
384663581,00000104,false,Rx,0,8,00,7F,00,19,00,20,0E,00,
384664610,0000010E,false,Rx,0,8,00,00,00,00,00,00,00,00,
384693557,00000280,false,Rx,0,8,14,CB,65,65,00,89,52,00,
384694590,00000280,false,Rx,0,5,10,00,00,00,00,00,00,00,
384734181,000000A2,false,Rx,0,8,78,80,A0,80,9D,85,04,00,
384751506,00000380,false,Rx,0,7,02,00,02,00,00,00,2B,00,
384762617,00000102,false,Rx,0,8,00,00,64,74,84,76,71,00,
384763607,00000104,false,Rx,0,8,00,7F,00,19,00,21,0E,00,
384764647,0000010E,false,Rx,0,8,00,00,00,00,00,00,00,00,
384767007,000000A4,false,Rx,0,8,B8,18,0F,19,7D,63,02,21,
384794339,00000280,false,Rx,0,8,14,CB,65,65,00,89,51,00,
384795409,00000280,false,Rx,0,8,04,0E,F8,00,00,00,00,00,
384822054,000000DA,false,Rx,0,8,78,80,A0,80,9A,85,04,00,
384830269,000000B2,false,Rx,0,8,78,80,A0,80,4E,85,04,00,
384833057,000000C2,false,Rx,0,8,78,80,C8,80,9E,85,04,50,
384841883,0000008A,false,Rx,0,8,78,80,A0,80,9D,85,04,00,
384854934,000000DC,false,Rx,0,8,DF,18,68,19,25,64,02,21,
384862584,00000102,false,Rx,0,8,00,00,64,74,84,76,71,00,
384863609,000000B4,false,Rx,0,8,AE,18,1F,19,53,63,02,21,
384864609,0000010E,false,Rx,0,8,00,00,00,00,00,00,00,00,
384865634,00000104,false,Rx,0,8,00,7F,00,1A,00,22,0E,00,
384866634,000000C4,false,Rx,0,8,A3,18,2C,19,74,63,02,23,
384871009,000000AA,false,Rx,0,8,78,80,A0,80,9C,85,04,00,
384874709,0000008C,false,Rx,0,8,F2,18,68,19,59,64,02,20,
384895185,00000280,false,Rx,0,8,14,CB,65,65,00,89,52,00,
384896263,00000280,false,Rx,0,8,04,0E,F8,00,00,00,00,00,
384901558,00000092,false,Rx,0,8,00,80,C8,80,FC,84,04,10,
384903860,000000AC,false,Rx,0,8,BD,18,18,19,75,63,02,23,
384930937,000000D2,false,Rx,0,8,78,80,C8,80,9C,85,04,20,
384934437,00000094,false,Rx,0,8,C2,18,29,19,9F,63,02,23,
384956275,000000CA,false,Rx,0,8,78,80,C8,80,9F,85,04,70,
384962608,00000102,false,Rx,0,8,00,00,64,74,84,76,71,00,
384963610,00000104,false,Rx,0,8,00,7F,00,1A,00,23,0E,00,
384964634,000000D4,false,Rx,0,8,BA,18,2A,19,AC,63,02,23,
384965636,0000010E,false,Rx,0,8,00,00,00,00,00,00,00,00,
384978011,000000BA,false,Rx,0,8,78,80,A0,80,9D,85,04,00,
384989136,000000CC,false,Rx,0,8,D9,18,27,19,DF,63,02,20,
384991911,00000180,false,Rx,0,1,01,00,00,00,00,00,00,00,
384995960,00000280,false,Rx,0,8,14,CB,65,65,00,89,52,00,
384997036,00000280,false,Rx,0,8,04,0E,F8,00,00,00,00,00,
385010862,000000BC,false,Rx,0,8,B5,18,21,19,A0,63,02,21,
385062587,00000102,false,Rx,0,8,00,00,64,74,84,76,71,00,
385063616,00000104,false,Rx,0,8,00,7F,00,1A,00,24,0E,00,
385064617,0000010E,false,Rx,0,8,00,00,00,00,00,00,00,00,
385096737,00000280,false,Rx,0,8,14,CB,65,65,00,89,52,00,
385097812,00000280,false,Rx,0,8,04,0E,F8,00,00,00,00,00,
385137811,0000009A,false,Rx,0,8,78,80,A0,80,9C,85,04,00,
385168813,00000102,false,Rx,0,8,00,00,64,74,84,76,71,00,
385169813,00000104,false,Rx,0,8,00,7F,00,19,00,25,0E,00,
385170838,0000009C,false,Rx,0,8,BB,18,0A,19,84,63,02,21,
385171851,0000010E,false,Rx,0,8,00,00,00,00,00,00,00,00,
385197528,00000280,false,Rx,0,8,14,CB,65,65,00,89,12,00,
385198588,00000280,false,Rx,0,8,04,0E,F8,00,00,00,00,00,
385199988,00000006,false,Rx,0,4,25,00,00,00,00,00,00,00,
385234195,000000A2,false,Rx,0,8,78,80,A0,80,9D,85,04,00,
385262614,00000102,false,Rx,0,8,00,00,64,74,84,76,71,00,
385263641,00000104,false,Rx,0,8,00,7F,00,1A,00,26,0D,00,
385264639,0000010E,false,Rx,0,8,00,00,00,00,00,00,00,00,
385267062,000000A4,false,Rx,0,8,B4,18,10,19,7F,63,02,21,
385298335,00000280,false,Rx,0,8,14,CB,65,65,00,89,51,00,
385299421,00000280,false,Rx,0,8,04,0E,F8,00,00,00,00,00,
385329626,0000010A,false,Rx,0,5,00,00,64,00,00,00,00,00,
385330583,000000B2,false,Rx,0,8,78,80,A0,80,76,85,04,00,
385331595,0000010C,false,Rx,0,3,00,00,00,00,00,00,00,00,
385333061,000000C2,false,Rx,0,8,78,80,C8,80,9E,85,04,20,
385341919,0000008A,false,Rx,0,8,78,80,A0,80,9D,85,04,00,
385358099,000000CA,false,Rx,0,8,78,80,C8,80,9F,85,04,70,
385362591,00000102,false,Rx,0,8,00,00,64,74,84,76,71,00,
385363620,000000B4,false,Rx,0,8,AE,18,21,19,54,63,02,21,
385364620,0000010E,false,Rx,0,8,00,00,00,00,00,00,00,00,
385365620,00000104,false,Rx,0,8,00,7F,00,1A,00,27,0D,00,
385366615,000000C4,false,Rx,0,8,A4,18,2D,19,76,63,02,23,
385374741,0000008C,false,Rx,0,8,EE,18,64,19,44,64,02,21,
385390966,000000CC,false,Rx,0,8,DC,18,24,19,DF,63,02,20,
385399171,00000280,false,Rx,0,8,14,CB,65,65,00,89,52,00,
385400251,00000280,false,Rx,0,8,04,0E,F8,00,00,00,00,00,
385412389,000000BC,false,Rx,0,8,B7,18,24,19,A5,63,02,21,
385420238,000000DA,false,Rx,0,8,78,80,A0,80,9A,85,04,00,
385453117,000000DC,false,Rx,0,8,DD,18,66,19,22,64,02,21,
385462655,00000102,false,Rx,0,8,00,00,64,74,84,76,71,00,
385463642,00000104,false,Rx,0,8,00,7F,00,1A,00,28,0E,00,
385464642,0000010E,false,Rx,0,8,00,00,00,00,00,00,00,00,
385469265,000000AA,false,Rx,0,8,78,80,A0,80,9C,85,04,00,
385499812,00000092,false,Rx,0,8,00,80,C8,80,FC,84,04,10,
385500792,00000280,false,Rx,0,8,14,CB,65,65,00,89,52,00,
385501792,00000280,false,Rx,0,5,06,10,07,84,1A,00,00,00,
385502816,000000AC,false,Rx,0,8,BB,18,13,19,74,63,02,23,
385510919,000000BA,false,Rx,0,8,78,80,A0,80,9D,85,04,00,
385529168,000000D2,false,Rx,0,8,78,80,A0,80,9C,85,04,00,
385532646,00000094,false,Rx,0,8,C4,18,2A,19,9F,63,02,23,
385539593,0000009A,false,Rx,0,8,78,80,A0,80,9C,85,04,00,
385562044,000000D4,false,Rx,0,8,BB,18,2B,19,B2,63,02,23,
385563019,00000102,false,Rx,0,8,00,00,64,74,84,76,71,00,
385564032,00000104,false,Rx,0,8,00,7F,00,1A,00,29,0E,00,
385565046,0000010E,false,Rx,0,8,00,00,00,00,00,00,00,00,
385566042,00000180,false,Rx,0,1,01,00,00,00,00,00,00,00,
385572477,0000009C,false,Rx,0,8,BE,18,08,19,7D,63,02,21,
385600744,00000280,false,Rx,0,8,14,CB,65,65,00,89,52,00,
385601819,00000280,false,Rx,0,8,04,0E,F8,00,00,00,00,00,
385655120,00000380,false,Rx,0,6,09,46,00,00,00,01,00,00,
385662694,00000102,false,Rx,0,8,00,00,64,74,84,76,71,00,
385663732,00000104,false,Rx,0,8,00,7F,00,1A,00,2A,0E,00,
385664744,0000010E,false,Rx,0,8,00,00,00,00,00,00,00,00,
385701549,00000280,false,Rx,0,8,14,CB,65,65,00,89,52,00,
385702559,00000280,false,Rx,0,5,10,00,00,00,00,00,00,00,
385754619,00000380,false,Rx,0,7,02,00,02,00,00,00,2F,00,
385762571,00000102,false,Rx,0,8,00,00,64,74,84,76,71,00,
385763572,00000104,false,Rx,0,8,00,7F,00,19,00,2B,0E,00,
385764604,0000010E,false,Rx,0,8,00,00,00,00,00,00,00,00,
385802342,00000280,false,Rx,0,8,14,CB,65,65,00,89,52,00,
385803446,00000280,false,Rx,0,8,04,0E,F8,00,00,00,00,00,
385830280,000000B2,false,Rx,0,8,78,80,A0,80,76,85,04,00,
385832397,000000A2,false,Rx,0,8,78,80,A0,80,9D,85,04,00,
385854622,000000DC,false,Rx,0,8,DC,18,63,19,1D,64,02,21,
385858145,000000CA,false,Rx,0,8,78,80,A0,80,9F,85,04,00,
385862597,00000102,false,Rx,0,8,00,00,64,74,84,76,71,00,
385863597,000000B4,false,Rx,0,8,AE,18,21,19,56,63,02,21,
385864597,0000010E,false,Rx,0,8,00,00,00,00,00,00,00,00,
385865627,000000A4,false,Rx,0,8,B9,18,0E,19,7E,63,02,21,
385866622,00000104,false,Rx,0,8,00,7F,00,19,00,2C,0E,00,
385871022,000000AA,false,Rx,0,8,78,80,A0,80,9C,85,04,00,
385879870,000000BA,false,Rx,0,8,78,80,A0,80,9D,85,04,00,
385890973,000000CC,false,Rx,0,8,DA,18,2B,19,E5,63,02,20,
385901601,00000092,false,Rx,0,8,00,80,C8,80,FC,84,04,10,
385903166,00000280,false,Rx,0,8,14,CB,65,65,00,89,52,00,
385904160,000000AC,false,Rx,0,8,BB,18,13,19,73,63,02,23,
385905171,00000280,false,Rx,0,8,04,0E,F8,00,00,00,00,00,
385912723,000000BC,false,Rx,0,8,B6,18,24,19,A3,63,02,21,
385930973,000000D2,false,Rx,0,8,78,80,A0,80,9C,85,04,00,
385931998,000000C2,false,Rx,0,8,78,80,C8,80,9E,85,04,40,
385934448,00000094,false,Rx,0,8,C3,18,27,19,9F,63,02,23,
385940124,0000008A,false,Rx,0,8,78,80,A0,80,75,85,04,00,
385953214,000000DA,false,Rx,0,8,78,80,A0,80,9A,85,04,00,
385962672,00000102,false,Rx,0,8,00,00,64,74,84,76,71,00,
385963673,00000104,false,Rx,0,8,00,7F,00,1A,00,2D,0E,00,
385964687,000000C4,false,Rx,0,8,A4,18,2D,19,74,63,02,23,
385965698,000000D4,false,Rx,0,8,BE,18,2A,19,B3,63,02,23,
385966698,0000010E,false,Rx,0,8,00,00,00,00,00,00,00,00,
385972949,0000008C,false,Rx,0,8,EF,18,56,19,3E,64,02,21,
386003941,00000280,false,Rx,0,8,14,CB,65,65,00,89,51,00,
386004999,00000280,false,Rx,0,8,04,0E,F8,00,00,00,00,00,
386039629,0000009A,false,Rx,0,8,78,80,A0,80,9C,85,04,00,
386040624,00000180,false,Rx,0,1,01,00,00,00,00,00,00,00,
386062631,00000102,false,Rx,0,8,00,00,64,74,84,76,71,00,
386063649,00000104,false,Rx,0,8,00,7F,00,1A,00,2E,0E,00,
386064654,0000010E,false,Rx,0,8,00,00,00,00,00,00,00,00,
386072476,0000009C,false,Rx,0,8,BF,18,09,19,85,63,02,21,
386104722,00000280,false,Rx,0,8,14,CB,65,65,00,89,52,00,
386105775,00000280,false,Rx,0,8,04,0E,F8,00,00,00,00,00,
386162702,00000102,false,Rx,0,8,00,00,64,74,84,76,71,00,
386163701,00000104,false,Rx,0,8,00,7F,00,1A,00,2F,0E,00,
386164734,0000010E,false,Rx,0,8,00,00,00,00,00,00,00,00,
386205555,00000280,false,Rx,0,8,14,CB,65,65,00,89,52,00,
386206649,00000280,false,Rx,0,8,04,0E,F8,00,00,00,00,00,
386208254,00000006,false,Rx,0,4,25,00,00,00,00,00,00,00,
386234284,000000A2,false,Rx,0,8,78,80,A0,80,9D,85,04,00,
386262604,00000102,false,Rx,0,8,00,00,64,74,84,76,71,00,
386263602,00000104,false,Rx,0,8,00,7F,00,19,00,20,0E,00,
386264632,0000010E,false,Rx,0,8,00,00,00,00,00,00,00,00,
386267075,000000A4,false,Rx,0,8,B9,18,0F,19,7F,63,02,21,
386306310,00000280,false,Rx,0,8,14,CB,65,65,00,89,52,00,
386307382,00000280,false,Rx,0,8,04,0E,F8,00,00,00,00,00,
386322127,000000DA,false,Rx,0,8,78,80,A0,80,9A,85,04,00,
386330302,000000B2,false,Rx,0,8,78,80,A0,80,4E,85,04,00,
386333111,000000C2,false,Rx,0,8,78,80,C8,80,9E,85,04,40,
386339755,0000010A,false,Rx,0,5,00,00,64,00,00,00,00,00,
386340753,0000010C,false,Rx,0,3,00,00,00,00,00,00,00,00,
386341928,0000008A,false,Rx,0,8,78,80,A0,80,75,85,04,00,
386354953,000000DC,false,Rx,0,8,DD,18,67,19,22,64,02,21,
386362702,00000102,false,Rx,0,8,00,00,64,74,84,76,71,00,
386363702,000000B4,false,Rx,0,8,B0,18,21,19,58,63,02,21,
386364736,0000010E,false,Rx,0,8,00,00,00,00,00,00,00,00,
386365728,00000104,false,Rx,0,8,00,7F,00,19,00,21,0E,00,
386366730,000000C4,false,Rx,0,8,A4,18,28,19,6F,63,02,23,
386374805,0000008C,false,Rx,0,8,F4,18,6A,19,5B,64,02,20,
386407130,00000280,false,Rx,0,8,14,CB,65,65,00,89,52,00,
386408254,00000280,false,Rx,0,8,04,0E,F8,00,00,00,00,00,
386434131,00000094,false,Rx,0,8,C6,18,2A,19,A0,63,02,23,
386456334,000000CA,false,Rx,0,8,78,80,A0,80,9F,85,04,00,
386462738,00000102,false,Rx,0,8,00,00,64,74,84,76,71,00,
386463740,00000104,false,Rx,0,8,00,7F,00,1A,00,22,0E,00,
386464759,0000010E,false,Rx,0,8,00,00,00,00,00,00,00,00,
386469261,000000AA,false,Rx,0,8,78,80,A0,80,9C,85,04,00,
386478107,000000BA,false,Rx,0,8,78,80,A0,80,9D,85,04,00,
386489180,000000CC,false,Rx,0,8,DA,18,2A,19,E4,63,02,20,
386502106,000000AC,false,Rx,0,8,BB,18,13,19,70,63,02,23,
386507904,00000280,false,Rx,0,8,14,CB,65,65,00,89,52,00,
386508905,00000280,false,Rx,0,5,06,10,07,84,1A,00,00,00,
386510930,000000BC,false,Rx,0,8,B6,18,22,19,A3,63,02,21,
386529225,000000D2,false,Rx,0,8,78,80,A0,80,9C,85,04,00,
386532706,00000092,false,Rx,0,8,00,80,C8,80,FC,84,04,10,
386562057,000000D4,false,Rx,0,8,BC,18,2D,19,B4,63,02,23,
386563056,00000102,false,Rx,0,8,00,00,64,74,84,76,71,00,
386564071,00000104,false,Rx,0,8,00,7F,00,1A,00,23,0E,00,
386565082,0000010E,false,Rx,0,8,00,00,00,00,00,00,00,00,
386566077,00000180,false,Rx,0,1,01,00,00,00,00,00,00,00,
386608732,00000280,false,Rx,0,8,14,CB,65,65,00,89,52,00,
386609831,00000280,false,Rx,0,8,04,0E,F8,00,00,00,00,00,
386637832,0000009A,false,Rx,0,8,78,80,A0,80,9C,85,04,00,
386658285,00000380,false,Rx,0,6,09,46,00,00,00,01,00,00,
386662651,00000102,false,Rx,0,8,00,00,64,74,84,76,71,00,
386663681,00000104,false,Rx,0,8,00,7F,00,19,00,24,0E,00,
386664682,0000010E,false,Rx,0,8,00,00,00,00,00,00,00,00,
386670703,0000009C,false,Rx,0,8,C0,18,0B,19,87,63,02,21,
386709509,00000280,false,Rx,0,8,14,CB,65,65,00,89,52,00,
386710533,00000280,false,Rx,0,5,10,00,00,00,00,00,00,00,
386734252,000000A2,false,Rx,0,8,78,80,C8,80,9D,85,04,60,
386757762,00000380,false,Rx,0,7,02,00,02,00,00,00,33,00,
386762608,00000102,false,Rx,0,8,00,00,64,74,84,76,71,00,
386763631,00000104,false,Rx,0,8,00,7F,00,19,00,25,0E,00,
386764634,0000010E,false,Rx,0,8,00,00,00,00,00,00,00,00,
386767080,000000A4,false,Rx,0,8,B8,18,13,19,85,63,02,21,
386810285,00000280,false,Rx,0,8,14,CB,65,65,00,89,51,00,
386811368,00000280,false,Rx,0,8,04,0E,F8,00,00,00,00,00,
386830322,000000B2,false,Rx,0,8,78,80,A0,80,76,85,04,00,
386858138,000000CA,false,Rx,0,8,78,80,A0,80,9F,85,04,00,
386862661,00000102,false,Rx,0,8,00,00,64,74,84,76,71,00,
386863660,000000B4,false,Rx,0,8,AE,18,23,19,59,63,02,21,
386864685,0000010E,false,Rx,0,8,00,00,00,00,00,00,00,00,
386865685,00000104,false,Rx,0,8,00,7F,00,1A,00,26,0E,00,
386866710,000000C4,false,Rx,0,8,A3,18,2C,19,70,63,02,23,
386871058,000000AA,false,Rx,0,8,78,80,A0,80,9C,85,04,00,
386879898,000000BA,false,Rx,0,8,78,80,A0,80,9D,85,04,00,
386890989,000000CC,false,Rx,0,8,DA,18,29,19,E2,63,02,20,
386903919,000000AC,false,Rx,0,8,BB,18,19,19,79,63,02,23,
386911137,00000280,false,Rx,0,8,14,CB,65,65,00,89,52,00,
386912284,00000280,false,Rx,0,8,04,0E,F8,00,00,00,00,00,
386913284,000000BC,false,Rx,0,8,B5,18,25,19,A6,63,02,21,
386920329,000000DA,false,Rx,0,8,78,80,A0,80,9A,85,04,00,
386931055,000000D2,false,Rx,0,8,78,80,A0,80,9C,85,04,00,
386940110,0000008A,false,Rx,0,8,78,80,A0,80,4D,85,04,00,
386953184,000000DC,false,Rx,0,8,E0,18,67,19,28,64,02,21,
386962561,00000102,false,Rx,0,8,00,00,64,74,84,76,71,00,
386963585,00000104,false,Rx,0,8,00,7F,00,1A,00,27,0E,00,
386964586,000000C2,false,Rx,0,8,78,80,C8,80,9E,85,04,20,
386965620,000000D4,false,Rx,0,8,BB,18,2D,19,B2,63,02,23,
386966603,0000010E,false,Rx,0,8,00,00,00,00,00,00,00,00,
386972966,0000008C,false,Rx,0,8,EF,18,64,19,49,64,02,21,
386999842,00000092,false,Rx,0,8,00,80,C8,80,FC,84,04,10,
387011919,00000280,false,Rx,0,8,14,CB,65,65,00,89,52,00,
387012987,00000280,false,Rx,0,8,04,0E,F8,00,00,00,00,00,
387032731,00000094,false,Rx,0,8,C8,18,29,19,A3,63,02,23,
387035187,00000180,false,Rx,0,1,01,00,00,00,00,00,00,00,
387039637,0000009A,false,Rx,0,8,78,80,A0,80,9C,85,04,00,
387062587,00000102,false,Rx,0,8,00,00,64,74,84,76,71,00,
387063621,00000104,false,Rx,0,8,00,7F,00,1A,00,28,0E,00,
387064612,0000010E,false,Rx,0,8,00,00,00,00,00,00,00,00,
387072501,0000009C,false,Rx,0,8,BE,18,0E,19,87,63,02,21,
387112688,00000280,false,Rx,0,8,14,CB,65,65,00,89,52,00,
387113787,00000280,false,Rx,0,8,04,0E,F8,00,00,00,00,00,
387162642,00000102,false,Rx,0,8,00,00,64,74,84,76,71,00,
387163632,00000104,false,Rx,0,8,00,7F,00,1A,00,29,0E,00,
387164663,0000010E,false,Rx,0,8,00,00,00,00,00,00,00,00,
387213447,00000280,false,Rx,0,8,14,CB,65,65,00,89,52,00,
387214547,00000280,false,Rx,0,8,04,0E,F8,00,00,00,00,00,
387262671,00000102,false,Rx,0,8,00,00,64,74,84,76,71,00,
387263688,00000104,false,Rx,0,8,00,7F,00,1A,00,2A,0E,00,
387264693,0000010E,false,Rx,0,8,00,00,00,00,00,00,00,00,
387266766,000000A4,false,Rx,0,8,B7,18,11,19,83,63,02,21,
387314264,00000280,false,Rx,0,8,14,CB,65,65,00,89,52,00,
387315366,00000280,false,Rx,0,8,04,0E,F8,00,00,00,00,00,
387316616,00000006,false,Rx,0,4,25,00,00,00,00,00,00,00,
387322142,000000DA,false,Rx,0,8,78,80,A0,80,9A,85,04,00,
387330353,000000B2,false,Rx,0,8,78,80,A0,80,9E,85,04,00,
387341940,0000008A,false,Rx,0,8,78,80,A0,80,4D,85,04,00,
387348916,0000010A,false,Rx,0,5,00,00,64,00,00,00,00,00,
387349916,0000010C,false,Rx,0,3,00,00,00,00,00,00,00,00,
387354999,000000DC,false,Rx,0,8,DE,18,68,19,25,64,02,21,
387362616,00000102,false,Rx,0,8,00,00,64,74,84,76,71,00,
387363616,000000B4,false,Rx,0,8,AE,18,25,19,5A,63,02,21,
387364617,0000010E,false,Rx,0,8,00,00,00,00,00,00,00,00,
387365646,000000A2,false,Rx,0,8,78,80,C8,80,9D,85,04,60,
387366641,00000104,false,Rx,0,8,00,7F,00,1A,00,2B,0E,00,
387374802,0000008C,false,Rx,0,8,F3,18,6A,19,5A,64,02,20,
387379965,000000BA,false,Rx,0,8,78,80,A0,80,9D,85,04,00,
387401667,00000092,false,Rx,0,8,00,80,C8,80,FC,84,04,10,
387412817,000000BC,false,Rx,0,8,B5,18,22,19,A2,63,02,21,
387415143,00000280,false,Rx,0,8,14,CB,65,65,00,89,52,00,
387416236,00000280,false,Rx,0,8,04,0E,F8,00,00,00,00,00,
387431349,000000C2,false,Rx,0,8,78,80,A0,80,9E,85,04,00,
387434498,00000094,false,Rx,0,8,C8,18,2B,19,A7,63,02,23,
387456368,000000CA,false,Rx,0,8,78,80,A0,80,9F,85,04,00,
387462618,00000102,false,Rx,0,8,00,00,64,74,84,76,71,00,
387463642,00000104,false,Rx,0,8,00,7F,00,19,00,2C,0E,00,
387464658,000000C4,false,Rx,0,8,A5,18,2E,19,76,63,02,23,
387465668,0000010E,false,Rx,0,8,00,00,00,00,00,00,00,00,
387469302,000000AA,false,Rx,0,8,78,80,A0,80,9C,85,04,00,
387489223,000000CC,false,Rx,0,8,DB,18,2E,19,F2,63,02,20,
387502151,000000AC,false,Rx,0,8,BF,18,18,19,81,63,02,23,
387515917,00000280,false,Rx,0,8,14,CB,65,65,00,89,52,00,
387516919,00000280,false,Rx,0,5,06,10,07,84,1A,00,00,00,
387529261,000000D2,false,Rx,0,8,78,80,C8,80,9C,85,04,20,
387539681,0000009A,false,Rx,0,8,78,80,A0,80,9C,85,04,00,
387562089,000000D4,false,Rx,0,8,C1,18,2F,19,BA,63,02,23,
387563127,00000102,false,Rx,0,8,00,00,64,74,84,76,71,00,
387564136,00000104,false,Rx,0,8,00,7F,00,1A,00,2D,0E,00,
387565136,0000010E,false,Rx,0,8,00,00,00,00,00,00,00,00,
387572494,0000009C,false,Rx,0,8,BF,18,0F,19,8C,63,02,21,
387616719,00000280,false,Rx,0,8,14,CB,65,65,00,88,52,03,
387617797,00000280,false,Rx,0,8,04,0E,F8,00,00,00,00,00,
387658257,00000180,false,Rx,0,1,01,00,00,00,00,00,00,00,
387661406,00000380,false,Rx,0,6,09,46,00,00,00,01,00,00,
387662595,00000102,false,Rx,0,8,00,00,64,74,84,76,71,00,
387663629,00000104,false,Rx,0,8,00,7F,00,19,00,2E,0E,00,
387664630,0000010E,false,Rx,0,8,00,00,00,00,00,00,00,00,
387717496,00000280,false,Rx,0,8,14,CB,65,65,00,89,52,00,
387718496,00000280,false,Rx,0,5,10,00,00,00,00,00,00,00,
387734284,000000A2,false,Rx,0,8,78,80,C8,80,9D,85,04,60,
387760930,00000380,false,Rx,0,7,02,00,02,00,00,00,37,00,
387762651,00000102,false,Rx,0,8,00,00,64,74,84,76,71,00,
387763649,00000104,false,Rx,0,8,00,7F,00,1A,00,2F,0E,00,
387764646,0000010E,false,Rx,0,8,00,00,00,00,00,00,00,00,
387767129,000000A4,false,Rx,0,8,B8,18,12,19,83,63,02,21,
387818261,00000280,false,Rx,0,8,14,CB,65,65,00,89,51,00,
387819346,00000280,false,Rx,0,8,04,0E,F8,00,00,00,00,00,
387822173,000000DA,false,Rx,0,8,78,80,A0,80,9A,85,04,00,
387830323,000000B2,false,Rx,0,8,78,80,A0,80,76,85,04,00,
387833149,000000C2,false,Rx,0,8,78,80,A0,80,9E,85,04,00,
387841974,0000008A,false,Rx,0,8,78,80,A0,80,9D,85,04,00,
387855025,000000DC,false,Rx,0,8,E0,18,69,19,28,64,02,21,
387858218,000000CA,false,Rx,0,8,78,80,A0,80,9F,85,04,00,
387862547,00000102,false,Rx,0,8,00,00,64,74,84,76,71,00,
387863548,000000B4,false,Rx,0,8,AE,18,25,19,5D,63,02,21,
387864572,0000010E,false,Rx,0,8,00,00,00,00,00,00,00,00,
387865572,00000104,false,Rx,0,8,00,7F,00,1A,00,20,0E,00,
387866607,000000C4,false,Rx,0,8,A4,18,2B,19,73,63,02,23,
387871080,000000AA,false,Rx,0,8,78,80,A0,80,9C,85,04,00,
387874808,0000008C,false,Rx,0,8,F0,18,56,19,3F,64,02,21,
387891006,000000CC,false,Rx,0,8,DB,18,2B,19,EB,63,02,20,
387901674,00000092,false,Rx,0,8,00,80,C7,80,FC,84,04,70,
387903923,000000AC,false,Rx,0,8,C1,18,17,19,79,63,02,21,
387919125,00000280,false,Rx,0,8,14,CB,65,65,00,89,52,00,
387920227,00000280,false,Rx,0,8,04,0E,F8,00,00,00,00,00,
387931048,000000D2,false,Rx,0,8,78,80,C8,80,9C,85,04,20,
387934528,00000094,false,Rx,0,8,CA,18,28,19,A5,63,02,23,
387962624,00000102,false,Rx,0,8,00,00,64,74,84,76,71,00,
387963624,00000104,false,Rx,0,8,00,7F,00,19,00,21,0E,00,
387964624,000000D4,false,Rx,0,8,C1,18,2B,19,B7,63,02,23,
387965653,0000010E,false,Rx,0,8,00,00,00,00,00,00,00,00,
387978176,000000BA,false,Rx,0,8,78,80,A0,80,9D,85,04,00,
388011026,000000BC,false,Rx,0,8,B6,18,23,19,A5,63,02,21,
388019900,00000280,false,Rx,0,8,14,CB,65,65,00,89,52,00,
388020975,00000280,false,Rx,0,8,04,0E,F8,00,00,00,00,00,
388062627,00000102,false,Rx,0,8,00,00,64,74,84,76,71,00,
388063631,00000104,false,Rx,0,8,00,7F,00,1A,00,22,0E,00,
388064660,0000010E,false,Rx,0,8,00,00,00,00,00,00,00,00,
388072175,0000009C,false,Rx,0,8,C1,18,0E,19,8F,63,02,21,
388120681,00000280,false,Rx,0,8,14,CB,65,65,00,88,52,03,
388121751,00000280,false,Rx,0,8,04,0E,F8,00,00,00,00,00,
388162678,00000102,false,Rx,0,8,00,00,64,74,84,76,71,00,
388163700,00000104,false,Rx,0,8,00,7F,00,19,00,23,0E,00,
388164702,0000010E,false,Rx,0,8,00,00,00,00,00,00,00,00,
388170744,0000009A,false,Rx,0,8,78,80,A0,80,9C,85,04,00,
388173843,00000180,false,Rx,0,1,01,00,00,00,00,00,00,00,
388221452,00000280,false,Rx,0,8,14,CB,65,65,00,89,52,00,
388222551,00000280,false,Rx,0,8,04,0E,F8,00,00,00,00,00,
388262556,00000102,false,Rx,0,8,00,00,64,74,84,76,71,00,
388263585,00000104,false,Rx,0,8,00,7F,00,1A,00,24,0E,00,
388264582,0000010E,false,Rx,0,8,00,00,00,00,00,00,00,00,
388266778,000000A4,false,Rx,0,8,B8,18,13,19,85,63,02,21,
388322238,00000280,false,Rx,0,8,14,CB,65,65,00,89,52,00,
388323330,00000280,false,Rx,0,8,04,0E,F8,00,00,00,00,00,
388358234,000000CA,false,Rx,0,8,78,80,A0,80,9F,85,04,00,
388359223,0000010A,false,Rx,0,5,00,00,64,00,00,00,00,00,
388360258,0000010C,false,Rx,0,3,00,00,00,00,00,00,00,00,
388362629,00000102,false,Rx,0,8,00,00,64,74,84,76,71,00,
388363630,00000104,false,Rx,0,8,00,7F,00,1A,00,25,0E,00,
388364654,0000010E,false,Rx,0,8,00,00,00,00,00,00,00,00,
388365654,000000A2,false,Rx,0,8,78,80,A0,80,9D,85,04,00,
388374479,0000008C,false,Rx,0,8,F5,18,60,19,4E,64,02,23,
388380012,000000BA,false,Rx,0,8,78,80,A0,80,9D,85,04,00,
388391035,000000CC,false,Rx,0,8,DA,18,2F,19,EE,63,02,20,
388412856,000000BC,false,Rx,0,8,B6,18,24,19,A7,63,02,21,
388420380,000000DA,false,Rx,0,8,78,80,A0,80,9A,85,04,00,
388423030,00000280,false,Rx,0,8,14,CB,65,65,00,88,51,03,
388424132,00000280,false,Rx,0,8,04,0E,F8,00,00,00,00,00,
388425506,00000006,false,Rx,0,4,25,00,00,00,00,00,00,00,
388428506,000000B2,false,Rx,0,8,78,80,A0,80,76,85,04,00,
388431055,000000D2,false,Rx,0,8,78,80,C8,80,9C,85,04,10,
388432055,000000C2,false,Rx,0,8,78,80,A0,80,9E,85,04,00,
388453244,000000DC,false,Rx,0,8,E1,18,6B,19,2C,64,02,21,
388461331,000000B4,false,Rx,0,8,AF,18,27,19,63,63,02,21,
388462756,00000102,false,Rx,0,8,00,00,64,74,84,76,71,00,
388463785,00000104,false,Rx,0,8,00,7F,00,1A,00,26,0E,00,
388464780,000000C4,false,Rx,0,8,A9,18,2C,19,75,63,02,23,
388465797,000000D4,false,Rx,0,8,C2,18,30,19,BB,63,02,23,
388466806,0000010E,false,Rx,0,8,00,00,00,00,00,00,00,00,
388469304,000000AA,false,Rx,0,8,78,80,A0,80,9C,85,04,00,
388473056,0000008A,false,Rx,0,8,78,80,A0,80,9D,85,04,00,
388499906,00000092,false,Rx,0,8,00,80,C8,80,FC,84,04,10,
388502157,000000AC,false,Rx,0,8,C1,18,1C,19,86,63,02,23,
388523906,00000280,false,Rx,0,8,14,CB,65,65,00,89,52,00,
388524907,00000280,false,Rx,0,5,06,10,07,84,1A,00,00,00,
388532757,00000094,false,Rx,0,8,CA,18,2A,19,A7,63,02,23,
388539720,0000009A,false,Rx,0,8,78,80,A0,80,9C,85,04,00,
388562644,00000102,false,Rx,0,8,00,00,64,74,84,76,71,00,
388563659,00000104,false,Rx,0,8,00,7F,00,1A,00,27,0D,00,
388564656,0000010E,false,Rx,0,8,00,00,00,00,00,00,00,00,
388572532,0000009C,false,Rx,0,8,C0,18,0E,19,8D,63,02,21,
388575607,00000180,false,Rx,0,1,01,00,00,00,00,00,00,00,
388624684,00000280,false,Rx,0,8,14,CB,65,65,00,89,52,00,
388625764,00000280,false,Rx,0,8,04,0E,F8,00,00,00,00,00,
388662546,00000102,false,Rx,0,8,00,00,64,74,84,76,71,00,
388663562,00000104,false,Rx,0,8,00,7F,00,1A,00,28,0E,00,
388664558,0000010E,false,Rx,0,8,00,00,00,00,00,00,00,00,
388665584,00000380,false,Rx,0,6,09,46,00,00,00,01,00,00,
388725494,00000280,false,Rx,0,8,14,CB,65,65,00,89,52,00,
388726488,00000280,false,Rx,0,5,10,00,00,00,00,00,00,00,
388734284,000000A2,false,Rx,0,8,78,80,A0,80,9D,85,04,00,
388762560,00000102,false,Rx,0,8,00,00,64,74,84,76,71,00,
388763583,00000104,false,Rx,0,8,00,7F,00,1A,00,29,0E,00,
388764591,0000010E,false,Rx,0,8,00,00,00,00,00,00,00,00,
388765622,00000380,false,Rx,0,7,02,00,02,00,00,00,3B,00,
388767136,000000A4,false,Rx,0,8,B6,18,12,19,82,63,02,21,
388822238,000000DA,false,Rx,0,8,78,80,A0,80,9A,85,04,00,
388826237,00000280,false,Rx,0,8,14,CB,65,65,00,89,51,00,
388827311,00000280,false,Rx,0,8,04,0E,F8,00,00,00,00,00,
388830335,000000B2,false,Rx,0,8,78,80,A0,80,76,85,04,00,
388833186,000000C2,false,Rx,0,8,78,80,A0,80,9E,85,04,00,
388841984,0000008A,false,Rx,0,8,78,80,A0,80,9D,85,04,00,
388855036,000000DC,false,Rx,0,8,DD,18,69,19,25,64,02,21,
388862665,00000102,false,Rx,0,8,00,00,64,74,84,76,71,00,
388863661,000000B4,false,Rx,0,8,B0,18,28,19,63,63,02,21,
388864685,0000010E,false,Rx,0,8,00,00,00,00,00,00,00,00,
388865684,00000104,false,Rx,0,8,00,7F,00,19,00,2A,0E,00,
388866686,000000C4,false,Rx,0,8,A9,18,2C,19,7B,63,02,23,
388871086,000000AA,false,Rx,0,8,78,80,A0,80,9C,85,04,00,
388874812,0000008C,false,Rx,0,8,F3,18,5F,19,4A,64,02,23,
388880036,000000BA,false,Rx,0,8,78,80,A0,80,9D,85,04,00,
388901711,00000092,false,Rx,0,8,00,80,C8,80,FC,84,04,10,
388903936,000000AC,false,Rx,0,8,C2,18,1A,19,7E,63,02,21,
388912895,000000BC,false,Rx,0,8,B7,18,26,19,AA,63,02,21,
388927087,00000280,false,Rx,0,8,14,CB,65,65,00,89,51,00,
388928186,00000280,false,Rx,0,8,04,0E,F8,00,00,00,00,00,
388934562,00000094,false,Rx,0,8,C8,18,2B,19,A6,63,02,23,
388956387,000000CA,false,Rx,0,8,78,80,C7,80,9F,85,04,80,
388962556,00000102,false,Rx,0,8,00,00,64,74,84,76,71,00,
388963537,00000104,false,Rx,0,8,00,7F,00,19,00,2B,0E,00,
388964561,0000010E,false,Rx,0,8,00,00,00,00,00,00,00,00,
388989273,000000CC,false,Rx,0,8,DF,18,2C,19,F3,63,02,20,
389027907,00000280,false,Rx,0,8,14,CB,65,65,00,89,52,00,
389028970,00000280,false,Rx,0,8,04,0E,F8,00,00,00,00,00,
389029971,000000D2,false,Rx,0,8,78,80,C7,80,9C,85,04,50,
389062165,000000D4,false,Rx,0,8,C5,18,2C,19,B9,63,02,23,
389063154,00000102,false,Rx,0,8,00,00,64,74,84,76,71,00,
389064183,00000104,false,Rx,0,8,00,7F,00,19,00,2C,0E,00,
389065179,0000010E,false,Rx,0,8,00,00,00,00,00,00,00,00,
389128642,00000280,false,Rx,0,8,14,CB,65,65,00,88,52,03,
389129740,00000280,false,Rx,0,8,04,0E,F8,00,00,00,00,00,
