Time Stamp,ID,Extended,Dir,Bus,LEN,D1,D2,D3,D4,D5,D6,D7,D8
10376802,00000288,false,Rx,0,5,06,10,FF,FF,FF,00,00,00,
10377711,00000288,false,Rx,0,4,08,00,00,00,00,00,00,00,
10390386,000000BA,false,Rx,0,8,78,80,A0,80,9D,85,04,00,
10401076,00000280,false,Rx,0,8,14,CB,65,65,CB,88,52,01,
10402457,00000280,false,Rx,0,8,04,0F,F8,00,00,00,00,00,
10405818,000000AA,false,Rx,0,8,78,80,A0,80,9C,85,04,00,
10407001,00000102,false,Rx,0,8,00,00,64,72,79,72,6F,13,
10408011,00000104,false,Rx,0,8,00,7F,00,19,00,2E,0D,04,
10409032,0000009A,false,Rx,0,8,78,80,A0,80,9C,85,04,00,
10410033,000000CA,false,Rx,0,8,78,80,C8,80,9F,85,04,00,
10411031,0000010E,false,Rx,0,8,00,00,00,00,00,00,00,00,
10413054,00000092,false,Rx,0,8,00,80,C8,80,24,85,04,10,
10423221,000000BC,false,Rx,0,8,A1,18,EB,18,0E,63,02,21,
10437930,000000B4,false,Rx,0,8,8C,18,E9,18,AB,62,02,20,
10438901,000000AC,false,Rx,0,8,90,18,E2,18,D2,62,02,23,
10441251,000000CC,false,Rx,0,8,B1,18,EC,18,54,63,02,20,
10442248,0000009C,false,Rx,0,8,A3,18,DA,18,EA,62,02,23,
10445285,000000DA,false,Rx,0,8,78,80,A0,80,9A,85,04,00,
10446255,00000094,false,Rx,0,8,9B,18,EC,18,FA,62,02,23,
10476729,00000288,false,Rx,0,5,06,10,FF,FF,FF,00,00,00,
10477868,00000288,false,Rx,0,8,04,00,4E,1B,64,C7,06,00,
10478911,00000288,false,Rx,0,7,04,01,28,0E,BE,A7,17,00,
10480073,00000288,false,Rx,0,8,04,02,2E,C5,7C,F8,14,00,
10481064,00000288,false,Rx,0,7,04,03,14,24,0A,CE,46,00,
10481884,00000288,false,Rx,0,4,08,00,00,00,00,00,00,00,
10502449,00000280,false,Rx,0,8,14,CB,65,65,CB,88,52,01,
10503828,00000280,false,Rx,0,8,04,0F,F8,00,00,00,00,00,
10507082,00000102,false,Rx,0,8,00,00,64,72,79,72,6F,13,
10508075,00000104,false,Rx,0,8,00,7F,00,19,00,2F,0D,04,
10509090,0000010E,false,Rx,0,8,00,00,00,00,00,00,00,00,
10535429,000000B2,false,Rx,0,8,9F,80,A0,80,9E,85,04,07,
10544479,00000180,false,Rx,0,1,01,00,00,00,00,00,00,00,
10576715,00000288,false,Rx,0,5,06,FF,FE,FF,FF,00,00,00,
10577696,00000288,false,Rx,0,4,08,00,00,00,00,00,00,00,
10602668,00000280,false,Rx,0,8,14,CB,65,65,CB,88,52,01,
10604034,00000280,false,Rx,0,8,04,0F,F8,00,00,00,00,00,
10605256,00000006,false,Rx,0,4,25,00,02,01,00,00,00,00,
10606975,00000102,false,Rx,0,8,00,00,64,72,79,72,6F,13,
10607969,00000104,false,Rx,0,8,00,7F,00,19,00,20,0E,04,
10609031,0000010E,false,Rx,0,8,00,00,00,00,00,00,00,00,
10659263,0000010A,false,Rx,0,5,00,00,64,C0,00,00,00,00,
10660258,0000010C,false,Rx,0,3,00,00,00,00,00,00,00,00,
10676752,00000288,false,Rx,0,5,06,FF,FE,FF,FF,00,00,00,
10677774,00000288,false,Rx,0,4,08,00,00,00,00,00,00,00,
10704038,00000280,false,Rx,0,8,14,CB,65,65,CB,88,52,01,
10705400,00000280,false,Rx,0,8,04,0F,F8,00,00,00,00,00,
10706916,00000102,false,Rx,0,8,00,00,64,72,79,72,6F,13,
10707915,00000104,false,Rx,0,8,00,7F,00,19,00,21,0E,04,
10708948,0000010E,false,Rx,0,8,00,00,00,00,00,00,00,00,
10776675,00000288,false,Rx,0,5,06,FF,FE,FF,FF,00,00,00,
10777668,00000288,false,Rx,0,4,08,00,00,00,00,00,00,00,
10793130,000000BA,false,Rx,0,8,78,80,A0,80,9D,85,04,00,
10804230,00000280,false,Rx,0,8,14,CB,65,65,CB,88,52,01,
10805613,00000280,false,Rx,0,8,04,0F,F8,00,00,00,00,00,
10806978,00000102,false,Rx,0,8,00,00,64,72,79,72,6F,13,
10807996,00000104,false,Rx,0,8,00,7F,00,19,00,22,0D,04,
10808998,0000010E,false,Rx,0,8,00,00,00,00,00,00,00,00,
10810021,0000008A,false,Rx,0,8,78,80,C8,80,9D,85,04,80,
10811126,000000CA,false,Rx,0,8,78,80,C8,80,9F,85,04,00,
10812398,000000A2,false,Rx,0,8,78,80,C8,80,9D,85,04,30,
10813396,000000C2,false,Rx,0,8,78,80,C8,80,9E,85,04,20,
10816669,00000380,false,Rx,0,6,09,74,19,29,1B,02,00,00,
10817668,000000D2,false,Rx,0,8,78,80,A0,80,9C,85,04,00,
10825980,000000BC,false,Rx,0,8,A0,18,ED,18,13,63,02,21,
10842454,0000008C,false,Rx,0,8,D0,18,0B,19,9B,63,02,23,
10843982,000000CC,false,Rx,0,8,B5,18,EC,18,51,63,02,20,
10845264,000000A4,false,Rx,0,8,9F,18,E0,18,E9,62,02,21,
10846304,000000C4,false,Rx,0,8,77,18,EE,18,C3,62,02,23,
10849950,000000D4,false,Rx,0,8,8F,18,EB,18,06,63,02,23,
10876663,00000288,false,Rx,0,5,06,EF,FE,FF,FF,00,00,00,
10877651,00000288,false,Rx,0,4,08,00,00,00,00,00,00,00,
10905345,000000B2,false,Rx,0,8,9F,80,A0,80,9E,85,04,07,
10906352,00000280,false,Rx,0,8,14,CB,65,65,CB,88,52,01,
10907375,00000102,false,Rx,0,8,00,00,64,72,79,72,6F,13,
10908371,00000104,false,Rx,0,8,00,7F,00,19,00,23,0E,04,
10909373,0000009A,false,Rx,0,8,78,80,A0,80,9C,85,04,00,
10910375,0000010E,false,Rx,0,8,00,00,00,00,00,00,00,00,
10912335,000000DA,false,Rx,0,8,78,80,A0,80,9A,85,04,00,
10913351,00000092,false,Rx,0,8,00,80,C8,80,24,85,04,10,
10938348,000000B4,false,Rx,0,8,8C,18,E9,18,AC,62,02,20,
10941800,0000009C,false,Rx,0,8,A3,18,DA,18,E9,62,02,23,
10945373,000000DC,false,Rx,0,8,BC,18,1D,19,58,63,02,23,
10946389,00000094,false,Rx,0,8,9B,18,ED,18,FA,62,02,23,
10976795,00000288,false,Rx,0,5,06,10,FF,FF,FF,00,00,00,
10977796,00000288,false,Rx,0,4,08,00,00,00,00,00,00,00,
11003157,000000AA,false,Rx,0,8,78,80,A0,80,9C,85,04,00,
11006968,00000102,false,Rx,0,8,00,00,64,72,79,72,6F,13,
11007995,00000104,false,Rx,0,8,00,7F,00,19,00,24,0D,04,
11009003,0000010E,false,Rx,0,8,00,00,00,00,00,00,00,00,
11035906,000000AC,false,Rx,0,8,94,18,E7,18,DD,62,02,23,
11038008,00000180,false,Rx,0,1,01,00,00,00,00,00,00,00,
11076679,00000288,false,Rx,0,5,06,FF,FE,FF,FF,00,00,00,
11077656,00000288,false,Rx,0,4,08,00,00,00,00,00,00,00,
11107170,00000102,false,Rx,0,8,00,00,64,72,79,72,6F,13,
11108090,00000104,false,Rx,0,8,00,7F,00,19,00,25,0D,04,
11109174,0000010E,false,Rx,0,8,00,00,00,00,00,00,00,00,
11176766,00000288,false,Rx,0,5,06,FF,FE,FF,FF,00,00,00,
11177679,00000288,false,Rx,0,4,08,00,00,00,00,00,00,00,
11207095,00000102,false,Rx,0,8,00,00,64,72,79,72,6F,13,
11208088,00000104,false,Rx,0,8,00,7F,00,19,00,26,0E,04,
11209148,0000010E,false,Rx,0,8,00,00,00,00,00,00,00,00,
11217940,00000380,false,Rx,0,7,02,00,14,00,00,00,1F,00,
11220953,00000280,false,Rx,0,5,06,E1,06,12,1B,00,00,00,
11222921,00000280,false,Rx,0,8,14,CB,65,65,CB,88,52,01,
11276666,00000288,false,Rx,0,5,06,FF,FE,FF,FF,00,00,00,
11277738,00000288,false,Rx,0,4,08,00,00,00,00,00,00,00,
11307000,00000102,false,Rx,0,8,00,00,64,72,79,72,6F,13,
11308009,00000104,false,Rx,0,8,00,7F,00,19,00,27,0D,04,
11309025,0000010E,false,Rx,0,8,00,00,00,00,00,00,00,00,
11310016,0000008A,false,Rx,0,8,78,80,A0,80,9D,85,04,00,
11311145,000000CA,false,Rx,0,8,78,80,C8,80,9F,85,04,30,
11312455,000000A2,false,Rx,0,8,78,80,C8,80,9D,85,04,40,
11315160,000000DA,false,Rx,0,8,78,80,A0,80,9A,85,04,00,
11317150,000000D2,false,Rx,0,8,78,80,C7,80,9C,85,04,70,
11318329,00000280,false,Rx,0,8,14,CB,65,65,CB,88,52,01,
11319724,00000280,false,Rx,0,8,04,0F,F8,00,00,00,00,00,
11325724,000000BC,false,Rx,0,8,9F,18,EC,18,0C,63,02,21,
11329457,00000006,false,Rx,0,3,1E,03,78,00,00,00,00,00,
11330461,0000032A,false,Rx,0,3,1E,03,78,00,00,00,00,00,
11331494,00000332,false,Rx,0,3,1E,03,78,00,00,00,00,00,
11342499,0000008C,false,Rx,0,8,D0,18,14,19,A7,63,02,23,
11343496,0000030A,false,Rx,0,3,1E,03,78,00,00,00,00,00,
11344497,000000CC,false,Rx,0,8,B5,18,ED,18,55,63,02,20,
11345517,0000034A,false,Rx,0,3,1E,03,78,00,00,00,00,00,
11345518,000000A4,false,Rx,0,8,9F,18,DF,18,E9,62,02,21,
11346550,00000322,false,Rx,0,3,1E,03,78,00,00,00,00,00,
11348025,000000DC,false,Rx,0,8,BB,18,16,19,4F,63,02,21,
11349017,0000035A,false,Rx,0,3,1E,03,78,00,00,00,00,00,
11350002,000000D4,false,Rx,0,8,92,18,EC,18,05,63,02,23,
11351006,00000352,false,Rx,0,3,1E,03,78,00,00,00,00,00,
11376721,00000288,false,Rx,0,5,06,10,FF,FF,FF,00,00,00,
11377689,00000288,false,Rx,0,4,08,00,00,00,00,00,00,00,
11406986,00000102,false,Rx,0,8,00,00,64,72,79,72,6F,13,
11408014,00000104,false,Rx,0,8,00,7F,00,19,00,28,0D,04,
11409006,0000009A,false,Rx,0,8,78,80,A0,80,9C,85,04,00,
11409977,0000010E,false,Rx,0,8,00,00,00,00,00,00,00,00,
11411034,000000C2,false,Rx,0,8,78,80,C8,80,9E,85,04,20,
11413115,00000092,false,Rx,0,8,00,80,C8,80,FC,84,04,10,
11419709,00000280,false,Rx,0,8,14,CB,65,65,CB,88,52,01,
11421073,00000280,false,Rx,0,8,04,0F,F8,00,00,00,00,00,
11423387,000000BA,false,Rx,0,8,78,80,A0,80,9D,85,04,00,
11424376,0000033A,false,Rx,0,3,1E,03,78,00,00,00,00,00,
11438391,000000AC,false,Rx,0,8,94,18,E6,18,D8,62,02,23,
11441668,0000009C,false,Rx,0,8,A4,18,DE,18,E9,62,02,21,
11442665,0000031A,false,Rx,0,3,1E,03,78,00,00,00,00,00,
11443588,000000C4,false,Rx,0,8,7A,18,EE,18,C6,62,02,23,
11444630,00000342,false,Rx,0,3,1E,03,78,00,00,00,00,00,
11446074,00000094,false,Rx,0,8,9B,18,EC,18,F8,62,02,23,
11447086,00000312,false,Rx,0,3,1E,03,78,00,00,00,00,00,
11476822,00000288,false,Rx,0,5,06,10,FF,FF,FF,00,00,00,
11477795,00000288,false,Rx,0,8,04,00,4F,1B,64,C7,06,00,
11479003,00000288,false,Rx,0,7,04,01,28,0E,BE,A7,17,00,
11479993,00000288,false,Rx,0,8,04,02,67,C6,7C,F8,14,00,
11480999,00000288,false,Rx,0,7,04,03,59,28,0A,CE,46,00,
11481869,00000288,false,Rx,0,4,08,00,00,00,00,00,00,00,
11502738,000000B2,false,Rx,0,8,78,80,A0,80,9E,85,04,00,
11506987,00000102,false,Rx,0,8,00,00,64,72,79,72,6F,13,
11507987,00000104,false,Rx,0,8,00,7F,00,19,00,29,0E,04,
11509003,0000010E,false,Rx,0,8,00,00,00,00,00,00,00,00,
11519935,00000280,false,Rx,0,8,14,CB,65,65,CB,88,52,01,
11520979,00000280,false,Rx,0,5,10,64,65,31,03,00,00,00,
11535566,000000B4,false,Rx,0,8,8C,18,EA,18,AC,62,02,20,
11536473,000000AA,false,Rx,0,8,78,80,A0,80,9C,85,04,00,
11576757,00000288,false,Rx,0,5,06,FF,FE,FF,FF,00,00,00,
11577844,00000288,false,Rx,0,4,08,00,00,00,00,00,00,00,
11607040,00000102,false,Rx,0,8,00,00,64,72,79,72,6F,13,
11608070,00000104,false,Rx,0,8,00,7F,00,19,00,2A,0D,04,
11609198,0000010E,false,Rx,0,8,00,00,00,00,00,00,00,00,
11621320,00000280,false,Rx,0,8,14,CB,65,65,CB,88,52,01,
11622871,00000280,false,Rx,0,8,04,0F,F8,00,00,00,00,00,
11624313,00000006,false,Rx,0,4,25,00,02,01,00,00,00,00,
11667913,0000010A,false,Rx,0,5,00,00,64,C0,00,00,00,00,
11668879,0000010C,false,Rx,0,3,00,00,00,00,00,00,00,00,
11676725,00000288,false,Rx,0,5,06,FF,FE,FF,FF,00,00,00,
11677744,00000288,false,Rx,0,4,08,00,00,00,00,00,00,00,
11707157,00000102,false,Rx,0,8,00,00,64,72,79,72,6F,13,
11708148,00000104,false,Rx,0,8,00,7F,00,18,00,2B,0E,04,
11709186,0000010E,false,Rx,0,8,00,00,00,00,00,00,00,00,
11721593,00000280,false,Rx,0,8,14,CB,65,65,CB,88,52,01,
11722966,00000280,false,Rx,0,8,04,0F,F8,00,00,00,00,00,
11776724,00000288,false,Rx,0,5,06,FF,FE,FF,FF,00,00,00,
11777694,00000288,false,Rx,0,4,08,00,00,00,00,00,00,00,
11807044,00000102,false,Rx,0,8,00,00,64,72,79,72,6F,13,
11808024,00000104,false,Rx,0,8,00,7F,00,19,00,2C,0D,04,
11809045,0000010E,false,Rx,0,8,00,00,00,00,00,00,00,00,
11810044,0000008A,false,Rx,0,8,78,80,A0,80,9D,85,04,00,
11811170,000000CA,false,Rx,0,8,78,80,C8,80,9F,85,04,20,
11812467,000000A2,false,Rx,0,8,78,80,A0,80,9D,85,04,00,
11813483,0000009A,false,Rx,0,8,78,80,A0,80,9C,85,04,00,
11815148,000000DA,false,Rx,0,8,78,80,C7,80,9A,85,04,70,
11816132,00000092,false,Rx,0,8,00,80,C8,80,FC,84,04,10,
11817209,000000D2,false,Rx,0,8,78,80,A0,80,9C,85,04,00,
11819652,00000380,false,Rx,0,6,09,74,19,29,1B,02,00,00,
11822874,00000280,false,Rx,0,8,14,CB,65,65,CB,88,52,01,
11824218,00000280,false,Rx,0,8,04,0F,F8,00,00,00,00,00,
11842495,0000008C,false,Rx,0,8,D5,18,0C,19,97,63,02,20,
11844018,000000CC,false,Rx,0,8,B4,18,EB,18,53,63,02,20,
11845289,000000A4,false,Rx,0,8,9E,18,DE,18,E9,62,02,21,
11846309,0000009C,false,Rx,0,8,A2,18,DB,18,E8,62,02,23,
11848058,000000DC,false,Rx,0,8,BA,18,1A,19,53,63,02,23,
11849051,00000094,false,Rx,0,8,9B,18,EB,18,F6,62,02,23,
11850045,000000D4,false,Rx,0,8,8F,18,EC,18,04,63,02,23,
11876667,00000288,false,Rx,0,5,06,FF,FE,FF,FF,00,00,00,
11877725,00000288,false,Rx,0,4,08,00,00,00,00,00,00,00,
11890492,000000BA,false,Rx,0,8,78,80,A0,80,9D,85,04,00,
11905329,000000B2,false,Rx,0,8,78,80,A0,80,9E,85,04,00,
11907094,00000102,false,Rx,0,8,00,00,64,72,79,72,6F,13,
11908117,00000104,false,Rx,0,8,00,7F,00,19,00,2D,0E,04,
11909116,0000010E,false,Rx,0,8,00,00,00,00,00,00,00,00,
11910092,000000C2,false,Rx,0,8,78,80,C8,80,9E,85,04,40,
11923130,00000280,false,Rx,0,8,14,CB,65,65,CB,88,52,01,
11924171,000000BC,false,Rx,0,8,A1,18,EB,18,0F,63,02,21,
11925150,00000280,false,Rx,0,8,04,0F,F8,00,00,00,00,00,
11938273,000000B4,false,Rx,0,8,8C,18,EA,18,AC,62,02,20,
11942809,000000C4,false,Rx,0,8,79,18,EF,18,C5,62,02,23,
11976713,00000288,false,Rx,0,5,06,FF,FE,FF,FF,00,00,00,
11977717,00000288,false,Rx,0,4,08,00,00,00,00,00,00,00,
11998318,00000180,false,Rx,0,1,01,00,00,00,00,00,00,00,
12003087,000000AA,false,Rx,0,8,78,80,C7,80,9C,85,04,40,
12007012,00000102,false,Rx,0,8,00,00,64,72,79,72,6F,13,
12007964,00000104,false,Rx,0,8,00,7F,00,19,00,2E,0D,04,
12008963,0000010E,false,Rx,0,8,00,00,00,00,00,00,00,00,
12024423,00000280,false,Rx,0,8,14,CB,65,65,CB,88,52,01,
12025850,00000280,false,Rx,0,8,04,0F,F8,00,00,00,00,00,
12035974,000000AC,false,Rx,0,8,90,18,E4,18,D2,62,02,23,
12076731,00000288,false,Rx,0,5,06,FF,FE,FF,FF,00,00,00,
12077690,00000288,false,Rx,0,4,08,00,00,00,00,00,00,00,
12107058,00000102,false,Rx,0,8,00,00,64,72,79,72,6F,13,
12108074,00000104,false,Rx,0,8,00,7F,00,18,00,2F,0E,04,
12109100,0000010E,false,Rx,0,8,00,00,00,00,00,00,00,00,
12124749,00000280,false,Rx,0,8,14,CB,65,65,CB,88,52,01,
12125811,00000280,false,Rx,0,5,06,E1,06,12,1B,00,00,00,
12176690,00000288,false,Rx,0,5,06,10,FF,FF,FF,00,00,00,
12177779,00000288,false,Rx,0,4,08,00,00,00,00,00,00,00,
12207023,00000102,false,Rx,0,8,00,00,64,72,79,72,6F,13,
12208143,00000104,false,Rx,0,8,00,7F,00,19,00,20,0E,04,
12209134,0000010E,false,Rx,0,8,00,00,00,00,00,00,00,00,
12221093,00000380,false,Rx,0,7,02,00,14,00,00,00,23,00,
12226168,00000280,false,Rx,0,8,14,CB,65,65,CB,88,52,01,
12227580,00000280,false,Rx,0,8,04,0F,F8,00,00,00,00,00,
12276711,00000288,false,Rx,0,5,06,10,FF,FF,FF,00,00,00,
12277711,00000288,false,Rx,0,4,08,00,00,00,00,00,00,00,
12307120,00000102,false,Rx,0,8,00,00,64,72,79,72,6F,13,
12308120,00000104,false,Rx,0,8,00,7F,00,19,00,21,0E,04,
12309066,0000010E,false,Rx,0,8,00,00,00,00,00,00,00,00,
12311152,000000CA,false,Rx,0,8,78,80,C8,80,9F,85,04,10,
12312259,0000009A,false,Rx,0,8,78,80,A0,80,9C,85,04,00,
12313242,000000A2,false,Rx,0,8,78,80,C8,80,9D,85,04,30,
12314230,000000C2,false,Rx,0,8,78,80,C8,80,9E,85,04,40,
12315235,000000DA,false,Rx,0,8,78,80,A0,80,9A,85,04,00,
12316252,00000092,false,Rx,0,8,00,80,C8,80,24,85,04,10,
12317251,000000D2,false,Rx,0,8,78,80,C8,80,9C,85,04,10,
12326364,00000280,false,Rx,0,8,14,CB,65,65,CB,88,52,01,
12327703,00000280,false,Rx,0,8,04,0F,F8,00,00,00,00,00,
12344045,000000CC,false,Rx,0,8,B3,18,EC,18,51,63,02,20,
12345071,0000009C,false,Rx,0,8,A0,18,DB,18,E4,62,02,21,
12346043,000000A4,false,Rx,0,8,9D,18,DE,18,E8,62,02,21,
12347081,000000C4,false,Rx,0,8,78,18,EE,18,C6,62,02,23,
12348082,000000DC,false,Rx,0,8,BC,18,18,19,55,63,02,21,
12349101,00000094,false,Rx,0,8,9A,18,EB,18,F7,62,02,23,
12350053,000000D4,false,Rx,0,8,91,18,EB,18,07,63,02,23,
12376715,00000288,false,Rx,0,5,06,FF,FE,FF,FF,00,00,00,
12377729,00000288,false,Rx,0,4,08,00,00,00,00,00,00,00,
12390510,000000BA,false,Rx,0,8,78,80,A0,80,9D,85,04,00,
12405435,000000B2,false,Rx,0,8,9F,80,A0,80,9E,85,04,07,
12406918,0000008A,false,Rx,0,8,78,80,A0,80,9D,85,04,00,
12407946,00000102,false,Rx,0,8,00,00,64,72,79,72,6F,13,
12408961,00000104,false,Rx,0,8,00,7F,00,19,00,22,0D,04,
12409975,0000010E,false,Rx,0,8,00,00,00,00,00,00,00,00,
12423340,000000BC,false,Rx,0,8,A1,18,EC,18,12,63,02,21,
12427811,00000280,false,Rx,0,8,14,CB,65,65,CB,88,52,01,
12429063,00000280,false,Rx,0,8,04,0F,F8,00,00,00,00,00,
12438306,000000B4,false,Rx,0,8,8C,18,E9,18,AB,62,02,20,
12439779,0000008C,false,Rx,0,8,CC,18,1F,19,AE,63,02,20,
12446102,00000180,false,Rx,0,1,01,00,00,00,00,00,00,00,
12476736,00000288,false,Rx,0,5,06,10,FF,FF,FF,00,00,00,
12477870,00000288,false,Rx,0,8,04,00,50,1B,64,C7,06,00,
12478907,00000288,false,Rx,0,7,04,01,28,0E,BE,A7,17,00,
12479887,00000288,false,Rx,0,8,04,02,A2,C7,7C,F8,14,00,
12480911,00000288,false,Rx,0,7,04,03,A5,2C,0A,CE,46,00,
12481917,00000288,false,Rx,0,4,08,00,00,00,00,00,00,00,
12503150,000000AA,false,Rx,0,8,78,80,C7,80,9C,85,04,40,
12507133,00000102,false,Rx,0,8,00,00,64,72,79,72,6F,13,
12508129,00000104,false,Rx,0,8,00,7F,00,18,00,23,0D,04,
12509158,0000010E,false,Rx,0,8,00,00,00,00,00,00,00,00,
12527928,00000280,false,Rx,0,8,14,CB,65,65,CB,88,52,01,
12528987,00000280,false,Rx,0,5,10,64,65,31,03,00,00,00,
12535969,000000AC,false,Rx,0,8,94,18,E5,18,D5,62,02,23,
12576742,00000288,false,Rx,0,5,06,20,FF,FF,FF,00,00,00,
12577749,00000288,false,Rx,0,4,08,00,00,00,00,00,00,00,
12607203,00000102,false,Rx,0,8,00,00,64,73,79,72,6F,13,
12607994,00000104,false,Rx,0,8,00,7F,00,19,00,24,0D,04,
12609012,0000010E,false,Rx,0,8,00,00,00,00,00,00,00,00,
12629425,00000280,false,Rx,0,8,14,CB,65,65,CB,88,52,01,
12630631,00000280,false,Rx,0,8,04,0F,F8,00,00,00,00,00,
12631884,00000006,false,Rx,0,4,25,00,02,01,00,00,00,00,
12676659,00000288,false,Rx,0,5,06,10,FF,FF,FF,00,00,00,
12677711,00000288,false,Rx,0,4,08,00,00,00,00,00,00,00,
12683262,0000010A,false,Rx,0,5,00,00,64,C0,00,00,00,00,
12684185,0000010C,false,Rx,0,3,00,00,00,00,00,00,00,00,
12706868,00000102,false,Rx,0,8,00,00,64,72,79,72,6F,13,
12707870,00000104,false,Rx,0,8,00,7F,00,19,00,25,0E,04,
12708867,0000010E,false,Rx,0,8,00,00,00,00,00,00,00,00,
12729549,00000280,false,Rx,0,8,14,CB,65,65,CB,88,52,01,
12730888,00000280,false,Rx,0,8,04,0F,F8,00,00,00,00,00,
12776665,00000288,false,Rx,0,5,06,FF,FE,FF,FF,00,00,00,
12777678,00000288,false,Rx,0,4,08,00,00,00,00,00,00,00,
12793270,000000BA,false,Rx,0,8,78,80,A0,80,9D,85,04,00,
12806924,00000102,false,Rx,0,8,00,00,64,72,79,72,6F,13,
12807924,00000104,false,Rx,0,8,00,7F,00,19,00,26,0D,04,
12808926,0000010E,false,Rx,0,8,00,00,00,00,00,00,00,00,
12809943,0000008A,false,Rx,0,8,78,80,A0,80,9D,85,04,00,
12811173,000000CA,false,Rx,0,8,78,80,C8,80,9F,85,04,10,
12812176,0000009A,false,Rx,0,8,78,80,A0,80,9C,85,04,00,
12815156,000000DA,false,Rx,0,8,78,80,A0,80,9A,85,04,00,
12816156,00000092,false,Rx,0,8,00,80,C8,80,24,85,04,10,
12817176,000000D2,false,Rx,0,8,78,80,C8,80,9C,85,04,20,
12822785,00000380,false,Rx,0,6,09,74,19,29,1B,02,00,00,
12826095,000000BC,false,Rx,0,8,A0,18,EC,18,0D,63,02,21,
12830825,00000280,false,Rx,0,8,14,CB,65,65,CB,88,52,01,
12832177,00000280,false,Rx,0,8,04,0F,F8,00,00,00,00,00,
12842515,0000008C,false,Rx,0,8,CD,18,10,19,9D,63,02,23,
12844012,000000CC,false,Rx,0,8,AE,18,ED,18,51,63,02,20,
12845032,0000009C,false,Rx,0,8,A1,18,D8,18,E2,62,02,23,
12846034,000000C4,false,Rx,0,8,7A,18,EF,18,C6,62,02,23,
12848020,000000DC,false,Rx,0,8,B9,18,1A,19,52,63,02,21,
12849008,00000094,false,Rx,0,8,9B,18,ED,18,FC,62,02,23,
12850031,000000D4,false,Rx,0,8,94,18,ED,18,09,63,02,23,
12876667,00000288,false,Rx,0,5,06,FF,FE,FF,FF,00,00,00,
12877685,00000288,false,Rx,0,4,08,00,00,00,00,00,00,00,
12907004,00000102,false,Rx,0,8,00,00,64,72,79,72,6F,13,
12908001,00000104,false,Rx,0,8,00,7F,00,19,00,27,0E,04,
12908999,0000010E,false,Rx,0,8,00,00,00,00,00,00,00,00,
12910017,000000A2,false,Rx,0,8,78,80,C8,80,9D,85,04,30,
12931105,00000280,false,Rx,0,8,14,CB,65,65,CB,88,52,01,
12932474,00000280,false,Rx,0,8,04,0F,F8,00,00,00,00,00,
12942565,000000A4,false,Rx,0,8,9E,18,DE,18,E6,62,02,21,
12943564,000000C2,false,Rx,0,8,78,80,A0,80,9E,85,04,00,
12976700,00000288,false,Rx,0,5,06,FF,FE,FF,FF,00,00,00,
12977723,00000288,false,Rx,0,4,08,00,00,00,00,00,00,00,
13002656,000000B2,false,Rx,0,8,9F,80,A0,80,9E,85,04,07,
13004294,000000AA,false,Rx,0,8,78,80,C8,80,9C,85,04,20,
13007027,00000102,false,Rx,0,8,00,00,64,72,79,72,6F,13,
13008035,00000104,false,Rx,0,8,00,7F,00,19,00,28,0E,04,
13009028,0000010E,false,Rx,0,8,00,00,00,00,00,00,00,00,
13032458,00000280,false,Rx,0,8,14,CB,65,65,CB,88,52,01,
13033807,00000280,false,Rx,0,8,04,0F,F8,00,00,00,00,00,
13035476,000000B4,false,Rx,0,8,8D,18,EA,18,AD,62,02,20,
13037181,000000AC,false,Rx,0,8,92,18,E3,18,D6,62,02,23,
13045874,00000180,false,Rx,0,1,01,00,00,00,00,00,00,00,
13076710,00000288,false,Rx,0,5,06,FF,FE,FF,FF,00,00,00,
13077719,00000288,false,Rx,0,4,08,00,00,00,00,00,00,00,
13106993,00000102,false,Rx,0,8,00,00,64,72,79,72,6F,13,
13108002,00000104,false,Rx,0,8,00,7F,00,19,00,29,0D,04,
13109006,0000010E,false,Rx,0,8,00,00,00,00,00,00,00,00,
13132730,00000280,false,Rx,0,8,14,CB,65,65,CB,88,52,01,
13133792,00000280,false,Rx,0,5,06,E1,06,12,1B,00,00,00,
13176720,00000288,false,Rx,0,5,06,FF,FE,FF,FF,00,00,00,
13177709,00000288,false,Rx,0,4,08,00,00,00,00,00,00,00,
13207082,00000102,false,Rx,0,8,00,00,64,72,79,72,6F,13,
13208061,00000104,false,Rx,0,8,00,7F,00,19,00,2A,0D,04,
13209077,0000010E,false,Rx,0,8,00,00,00,00,00,00,00,00,
13224156,00000380,false,Rx,0,7,02,00,14,00,00,00,27,00,
13276730,00000288,false,Rx,0,5,06,FF,FE,FF,FF,00,00,00,
13277719,00000288,false,Rx,0,4,08,00,00,00,00,00,00,00,
13307055,00000102,false,Rx,0,8,00,00,64,72,79,72,6F,13,
13308053,00000104,false,Rx,0,8,00,7F,00,19,00,2B,0E,04,
13309083,0000010E,false,Rx,0,8,00,00,00,00,00,00,00,00,
13310075,0000008A,false,Rx,0,8,78,80,A0,80,9D,85,04,00,
13315946,00000092,false,Rx,0,8,00,80,C8,80,24,85,04,10,
13317256,000000D2,false,Rx,0,8,78,80,C8,80,9C,85,04,20,
13325833,000000BC,false,Rx,0,8,9D,18,ED,18,0E,63,02,21,
13326846,00000280,false,Rx,0,8,14,CB,31,98,CB,88,9A,01,
13328941,00000280,false,Rx,0,8,04,0F,F8,00,00,00,00,00,
13342563,0000008C,false,Rx,0,8,D0,18,15,19,9C,63,02,20,
13343740,000000CC,false,Rx,0,8,B2,18,EE,18,5B,63,02,20,
13344744,0000009C,false,Rx,0,8,A2,18,DB,18,E5,62,02,21,
13348772,00000094,false,Rx,0,8,9D,18,ED,18,FA,62,02,23,
13350093,000000D4,false,Rx,0,8,90,18,ED,18,08,63,02,23,
13376719,00000288,false,Rx,0,5,06,FF,FE,FF,FF,00,00,00,
13377718,00000288,false,Rx,0,4,08,00,00,00,00,00,00,00,
13407250,00000102,false,Rx,0,8,00,00,64,72,79,72,6F,13,
13408052,00000104,false,Rx,0,8,00,7F,00,19,00,2C,0E,04,
13409067,0000010E,false,Rx,0,8,00,00,00,00,00,00,00,00,
13410070,000000A2,false,Rx,0,8,78,80,C8,80,9D,85,04,60,
13411107,000000C2,false,Rx,0,8,78,80,C8,80,9E,85,04,20,
13412469,000000DA,false,Rx,0,8,78,80,C8,80,9A,85,04,30,
13423404,000000BA,false,Rx,0,8,78,80,A0,80,9D,85,04,00,
13425568,00000280,false,Rx,0,8,14,CB,52,78,CB,88,42,01,
13426960,00000280,false,Rx,0,8,04,0F,F8,00,00,00,00,00,
13437993,000000B4,false,Rx,0,8,8C,18,E9,18,AB,62,02,20,
13441380,000000CA,false,Rx,0,8,78,80,C8,80,9F,85,04,20,
13442304,0000009A,false,Rx,0,8,78,80,A0,80,9C,85,04,00,
13443326,000000A4,false,Rx,0,8,9F,18,DE,18,EA,62,02,21,
13444380,000000C4,false,Rx,0,8,7B,18,EF,18,C1,62,02,23,
13445379,000000DC,false,Rx,0,8,BB,18,19,19,55,63,02,23,
13476703,00000288,false,Rx,0,5,06,10,FF,FF,FF,00,00,00,
13477791,00000288,false,Rx,0,8,04,00,51,1B,64,C7,06,00,
13478868,00000288,false,Rx,0,7,04,01,28,0E,BE,A7,17,00,
13479855,00000288,false,Rx,0,8,04,02,DD,C8,7C,F8,14,00,
13480902,00000288,false,Rx,0,7,04,03,F1,30,0A,CE,46,00,
13481916,00000288,false,Rx,0,4,08,00,00,00,00,00,00,00,
13503162,000000AA,false,Rx,0,8,78,80,C7,80,9C,85,04,40,
13507059,00000102,false,Rx,0,8,00,00,64,72,79,72,6F,13,
13508079,00000104,false,Rx,0,8,00,7F,00,19,00,2D,0D,04,
13509077,0000010E,false,Rx,0,8,00,00,00,00,00,00,00,00,
13525828,00000280,false,Rx,0,8,14,CB,5D,6C,CB,88,7A,01,
13527216,00000280,false,Rx,0,8,04,0F,F8,00,00,00,00,00,
13535505,000000B2,false,Rx,0,8,78,80,A0,80,9E,85,04,00,
13536532,000000AC,false,Rx,0,8,90,18,E1,18,D5,62,02,23,
13544914,00000180,false,Rx,0,1,01,00,00,00,00,00,00,00,
13576703,00000288,false,Rx,0,5,06,10,FF,FF,FF,00,00,00,
13577714,00000288,false,Rx,0,4,08,00,00,00,00,00,00,00,
13607116,00000102,false,Rx,0,8,00,00,64,72,79,72,6F,13,
13608121,00000104,false,Rx,0,8,00,7F,00,19,00,2E,0D,04,
13609142,0000010E,false,Rx,0,8,00,00,00,00,00,00,00,00,
13627156,00000280,false,Rx,0,8,14,CB,61,68,CB,88,6E,01,
13628188,00000280,false,Rx,0,5,10,65,65,31,02,00,00,00,
13676704,00000288,false,Rx,0,5,06,10,FF,FF,FF,00,00,00,
13677704,00000288,false,Rx,0,4,08,00,00,00,00,00,00,00,
13678722,00000006,false,Rx,0,4,25,00,02,01,00,00,00,00,
13687985,0000010A,false,Rx,0,5,00,00,64,C0,00,00,00,00,
13688953,0000010C,false,Rx,0,3,00,00,00,00,00,00,00,00,
13707135,00000102,false,Rx,0,8,00,00,64,73,79,72,6F,13,
13708016,00000104,false,Rx,0,8,00,7F,00,19,00,2F,0E,04,
13709141,0000010E,false,Rx,0,8,00,00,00,00,00,00,00,00,
13727491,00000280,false,Rx,0,8,14,CB,63,66,CB,88,7A,01,
13728740,00000280,false,Rx,0,8,04,0F,F8,00,00,00,00,00,
13776741,00000288,false,Rx,0,5,06,FF,FE,FF,FF,00,00,00,
13777742,00000288,false,Rx,0,4,08,00,00,00,00,00,00,00,
13806979,00000102,false,Rx,0,8,00,00,64,72,79,72,6F,13,
13807963,00000104,false,Rx,0,8,00,7F,00,18,00,20,0D,04,
13808977,0000010E,false,Rx,0,8,00,00,00,00,00,00,00,00,
13815953,00000092,false,Rx,0,8,00,80,C8,80,24,85,04,10,
13817296,000000D2,false,Rx,0,8,78,80,C7,80,9C,85,04,40,
13825789,00000380,false,Rx,0,6,09,74,19,29,1B,02,00,00,
13828769,00000280,false,Rx,0,8,14,CB,64,66,CB,88,42,01,
13830076,00000280,false,Rx,0,8,04,0F,F8,00,00,00,00,00,
13848819,00000094,false,Rx,0,8,9B,18,ED,18,FC,62,02,23,
13850131,000000D4,false,Rx,0,8,8D,18,EC,18,09,63,02,23,
13876742,00000288,false,Rx,0,5,06,FF,FE,FF,FF,00,00,00,
13877727,00000288,false,Rx,0,4,08,00,00,00,00,00,00,00,
13891784,000000BA,false,Rx,0,8,78,80,A0,80,9D,85,04,00,
13905477,000000B2,false,Rx,0,8,78,80,A0,80,9E,85,04,00,
13906944,0000008A,false,Rx,0,8,78,80,C8,80,9D,85,04,80,
13907949,00000102,false,Rx,0,8,00,00,64,72,79,72,6F,13,
13908952,0000009A,false,Rx,0,8,78,80,A0,80,9C,85,04,00,
13909931,000000CA,false,Rx,0,8,78,80,C8,80,9F,85,04,70,
13910976,000000A2,false,Rx,0,8,78,80,C8,80,9D,85,04,00,
13911997,000000C2,false,Rx,0,8,78,80,C8,80,9E,85,04,20,
13912989,000000DA,false,Rx,0,8,78,80,C8,80,9A,85,04,60,
13913992,00000104,false,Rx,0,8,00,7F,00,19,00,21,0D,04,
13915008,0000010E,false,Rx,0,8,00,00,00,00,00,00,00,00,
13924707,000000BC,false,Rx,0,8,A1,18,ED,18,10,63,02,21,
13929053,00000280,false,Rx,0,8,14,CB,64,65,CB,88,7A,01,
13930378,00000280,false,Rx,0,8,04,0F,F8,00,00,00,00,00,
13938312,000000B4,false,Rx,0,8,8C,18,EA,18,AE,62,02,20,
13939807,0000008C,false,Rx,0,8,D1,18,1A,19,AC,63,02,23,
13941288,000000CC,false,Rx,0,8,AF,18,EE,18,56,63,02,20,
13942347,0000009C,false,Rx,0,8,A3,18,DD,18,E9,62,02,23,
13943343,000000A4,false,Rx,0,8,9C,18,DD,18,E6,62,02,21,
13944306,000000C4,false,Rx,0,8,7A,18,EF,18,C4,62,02,23,
13945304,000000DC,false,Rx,0,8,BB,18,19,19,55,63,02,21,
13976710,00000288,false,Rx,0,5,06,FF,FE,FF,FF,00,00,00,
13977723,00000288,false,Rx,0,4,08,00,00,00,00,00,00,00,
14003111,000000AA,false,Rx,0,8,78,80,C8,80,9C,85,04,60,
14013281,00000102,false,Rx,0,8,00,00,64,73,79,72,6F,13,
14014284,00000104,false,Rx,0,8,00,7F,00,19,00,22,0E,04,
14015288,0000010E,false,Rx,0,8,00,00,00,00,00,00,00,00,
14030359,00000280,false,Rx,0,8,14,CB,64,65,CB,88,7A,01,
14031731,00000280,false,Rx,0,8,04,0F,F8,00,00,00,00,00,
14035989,000000AC,false,Rx,0,8,91,18,E0,18,D8,62,02,23,
14040653,00000180,false,Rx,0,1,01,00,00,00,00,00,00,00,
14076676,00000288,false,Rx,0,5,06,10,FF,FF,FF,00,00,00,
14077694,00000288,false,Rx,0,4,08,00,00,00,00,00,00,00,
14107031,00000102,false,Rx,0,8,00,00,64,72,79,72,6F,13,
14108036,00000104,false,Rx,0,8,00,7F,00,19,00,23,0E,04,
14109044,0000010E,false,Rx,0,8,00,00,00,00,00,00,00,00,
14130628,00000280,false,Rx,0,8,14,CB,64,65,CB,88,6E,01,
14131994,00000280,false,Rx,0,8,04,0F,F8,00,00,00,00,00,
14176695,00000288,false,Rx,0,5,06,10,FF,FF,FF,00,00,00,
14177670,00000288,false,Rx,0,4,08,00,00,00,00,00,00,00,
14213168,00000102,false,Rx,0,8,00,00,64,72,79,72,6F,13,
14214188,00000104,false,Rx,0,8,00,7F,00,19,00,24,0E,04,
14215214,0000010E,false,Rx,0,8,00,00,00,00,00,00,00,00,
14227103,00000380,false,Rx,0,7,02,00,14,00,00,00,2B,00,
14231960,00000280,false,Rx,0,8,14,CB,64,65,CB,88,6E,01,
14233034,00000280,false,Rx,0,5,06,E1,06,12,1B,00,00,00,
14276734,00000288,false,Rx,0,5,06,FF,FE,FF,FF,00,00,00,
14277737,00000288,false,Rx,0,4,08,00,00,00,00,00,00,00,
14293399,000000BA,false,Rx,0,8,78,80,A0,80,9D,85,04,00,
14306879,00000102,false,Rx,0,8,00,00,64,72,79,72,6F,13,
14307869,00000104,false,Rx,0,8,00,7F,00,19,00,25,0E,04,
14308888,0000010E,false,Rx,0,8,00,00,00,00,00,00,00,00,
14311604,0000009A,false,Rx,0,8,78,80,A0,80,9C,85,04,00,
14315984,00000092,false,Rx,0,8,00,80,C8,80,24,85,04,10,
14317297,000000D2,false,Rx,0,8,78,80,C7,80,9C,85,04,40,
14326219,000000BC,false,Rx,0,8,9F,18,EA,18,12,63,02,21,
14332220,00000280,false,Rx,0,8,14,CB,64,65,CB,88,6E,01,
14333591,00000280,false,Rx,0,8,04,0F,F8,00,00,00,00,00,
14344415,0000009C,false,Rx,0,8,A4,18,DD,18,E7,62,02,21,
14345419,000000C4,false,Rx,0,8,7B,18,EE,18,C8,62,02,23,
14348820,00000094,false,Rx,0,8,9E,18,ED,18,FE,62,02,23,
14350105,000000D4,false,Rx,0,8,91,18,ED,18,09,63,02,23,
14376714,00000288,false,Rx,0,5,06,FF,FE,FF,FF,00,00,00,
14377732,00000288,false,Rx,0,4,08,00,00,00,00,00,00,00,
14405463,000000B2,false,Rx,0,8,78,80,A0,80,9E,85,04,00,
14406957,0000008A,false,Rx,0,8,78,80,A0,80,9D,85,04,00,
14407967,00000102,false,Rx,0,8,00,00,64,72,79,72,6F,13,
14408975,000000CA,false,Rx,0,8,78,80,C8,80,9F,85,04,40,
14409979,00000104,false,Rx,0,8,00,7F,00,19,00,26,0E,04,
14410938,000000A2,false,Rx,0,8,78,80,C8,80,9D,85,04,00,
14412002,0000010E,false,Rx,0,8,00,00,00,00,00,00,00,00,
14412999,000000DA,false,Rx,0,8,78,80,C8,80,9A,85,04,30,
14433577,00000280,false,Rx,0,8,14,CB,64,65,CB,88,6E,01,
14434914,00000280,false,Rx,0,8,04,0F,F8,00,00,00,00,00,
14438330,000000B4,false,Rx,0,8,8C,18,EA,18,AD,62,02,20,
14439790,0000008C,false,Rx,0,8,CB,18,19,19,A1,63,02,20,
14441360,000000CC,false,Rx,0,8,B4,18,EB,18,52,63,02,20,
14442739,000000A4,false,Rx,0,8,9D,18,DD,18,E7,62,02,21,
14443810,000000C2,false,Rx,0,8,78,80,C8,80,9E,85,04,20,
14445411,000000DC,false,Rx,0,8,BC,18,18,19,55,63,02,21,
14476719,00000288,false,Rx,0,5,06,10,FF,FF,FF,00,00,00,
14477858,00000288,false,Rx,0,8,04,00,52,1B,64,C7,06,00,
14478890,00000288,false,Rx,0,7,04,01,28,0E,BE,A7,17,00,
14479888,00000288,false,Rx,0,8,04,02,10,CA,7C,F8,14,00,
14480895,00000288,false,Rx,0,7,04,03,1E,35,0A,CE,46,00,
14481935,00000288,false,Rx,0,4,08,00,00,00,00,00,00,00,
14503208,000000AA,false,Rx,0,8,78,80,A0,80,9C,85,04,00,
14507011,00000102,false,Rx,0,8,00,00,64,72,79,72,6F,13,
14508033,00000104,false,Rx,0,8,00,7F,00,19,00,27,0E,04,
14509023,0000010E,false,Rx,0,8,00,00,00,00,00,00,00,00,
14533820,00000280,false,Rx,0,8,14,CB,64,65,CB,88,6E,01,
14535203,00000280,false,Rx,0,8,04,0F,F8,00,00,00,00,00,
14536198,000000AC,false,Rx,0,8,91,18,E4,18,DA,62,02,23,
14544286,00000180,false,Rx,0,1,01,00,00,00,00,00,00,00,
14576693,00000288,false,Rx,0,5,06,10,FF,FF,FF,00,00,00,
14577709,00000288,false,Rx,0,4,08,00,00,00,00,00,00,00,
14613644,00000102,false,Rx,0,8,00,00,64,72,79,72,6F,13,
14614654,00000104,false,Rx,0,8,00,7F,00,19,00,28,0D,04,
14615656,0000010E,false,Rx,0,8,00,00,00,00,00,00,00,00,
14635144,00000280,false,Rx,0,8,14,CB,64,65,CB,88,6E,01,
14636213,00000280,false,Rx,0,5,10,65,65,31,02,00,00,00,
14676712,00000288,false,Rx,0,5,06,10,FF,FF,FF,00,00,00,
14677725,00000288,false,Rx,0,4,08,00,00,00,00,00,00,00,
14699232,0000010A,false,Rx,0,5,00,00,64,C0,00,00,00,00,
14700215,0000010C,false,Rx,0,3,00,00,00,00,00,00,00,00,
14706997,00000102,false,Rx,0,8,00,00,64,72,79,72,6F,13,
14708000,00000104,false,Rx,0,8,00,7F,00,19,00,29,0D,04,
14709138,0000010E,false,Rx,0,8,00,00,00,00,00,00,00,00,
14735450,00000280,false,Rx,0,8,14,CB,64,65,CB,88,6E,01,
14736812,00000280,false,Rx,0,8,04,0F,F8,00,00,00,00,00,
14741382,00000006,false,Rx,0,4,25,00,02,01,00,00,00,00,
14776704,00000288,false,Rx,0,5,06,10,FF,FF,FF,00,00,00,
14777720,00000288,false,Rx,0,4,08,00,00,00,00,00,00,00,
14793379,000000BA,false,Rx,0,8,78,80,A0,80,9D,85,04,00,
14806997,00000102,false,Rx,0,8,00,00,64,72,79,72,6F,13,
14807996,00000104,false,Rx,0,8,00,7F,00,19,00,2A,0D,04,
14809002,0000010E,false,Rx,0,8,00,00,00,00,00,00,00,00,
14810068,0000008A,false,Rx,0,8,78,80,A0,80,9D,85,04,00,
14811289,000000CA,false,Rx,0,8,78,80,C8,80,9F,85,04,40,
14812288,0000009A,false,Rx,0,8,78,80,A0,80,9C,85,04,00,
14813287,000000A2,false,Rx,0,8,78,80,C8,80,9D,85,04,00,
14815990,00000092,false,Rx,0,8,00,80,C8,80,24,85,04,10,
14817289,000000D2,false,Rx,0,8,78,80,C8,80,9C,85,04,20,
14826262,000000BC,false,Rx,0,8,A0,18,EC,18,12,63,02,21,
14828859,00000380,false,Rx,0,6,09,74,19,29,1B,02,00,00,
14836741,00000280,false,Rx,0,8,14,CB,64,65,CB,88,6E,01,
14838117,00000280,false,Rx,0,8,04,0F,F8,00,00,00,00,00,
14842597,0000008C,false,Rx,0,8,D5,18,1F,19,AF,63,02,20,
14844139,000000CC,false,Rx,0,8,B3,18,ED,18,55,63,02,20,
14845156,0000009C,false,Rx,0,8,A0,18,D7,18,E2,62,02,23,
14846166,000000A4,false,Rx,0,8,A0,18,DE,18,E7,62,02,21,
14848830,00000094,false,Rx,0,8,9B,18,ED,18,FB,62,02,23,
14850180,000000D4,false,Rx,0,8,8C,18,EC,18,08,63,02,23,
14876714,00000288,false,Rx,0,5,06,10,FF,FF,FF,00,00,00,
14877699,00000288,false,Rx,0,4,08,00,00,00,00,00,00,00,
14905944,000000AA,false,Rx,0,8,78,80,A0,80,9C,85,04,00,
14907045,00000102,false,Rx,0,8,00,00,64,72,79,72,6F,13,
14908047,00000104,false,Rx,0,8,00,7F,00,19,00,2B,0D,04,
14909049,0000010E,false,Rx,0,8,00,00,00,00,00,00,00,00,
14910066,000000C2,false,Rx,0,8,78,80,C8,80,9E,85,04,10,
14912624,000000DA,false,Rx,0,8,78,80,A0,80,9A,85,04,00,
14937035,00000280,false,Rx,0,8,14,CB,64,65,CB,88,6E,01,
14938404,00000280,false,Rx,0,8,04,0F,F8,00,00,00,00,00,
14939385,000000AC,false,Rx,0,8,91,18,E5,18,D5,62,02,23,
14942967,000000C4,false,Rx,0,8,77,18,ED,18,C3,62,02,23,
14945404,000000DC,false,Rx,0,8,BB,18,19,19,57,63,02,23,
14976725,00000288,false,Rx,0,5,06,10,FF,FF,FF,00,00,00,
14977726,00000288,false,Rx,0,4,08,00,00,00,00,00,00,00,
14999293,00000006,false,Rx,0,3,1E,03,78,00,00,00,00,00,
15000310,00000312,false,Rx,0,3,1E,03,78,00,00,00,00,00,
15001258,0000030A,false,Rx,0,3,1E,03,78,00,00,00,00,00,
15001260,0000031A,false,Rx,0,3,1E,03,78,00,00,00,00,00,
15002309,00000322,false,Rx,0,3,1E,03,78,00,00,00,00,00,
15003301,0000033A,false,Rx,0,3,1E,03,78,00,00,00,00,00,
15003302,000000B2,false,Rx,0,8,78,80,A0,80,9E,85,04,00,
15004290,00000342,false,Rx,0,3,1E,03,78,00,00,00,00,00,
15005293,0000034A,false,Rx,0,3,1E,03,78,00,00,00,00,00,
15005294,00000352,false,Rx,0,3,1E,03,78,00,00,00,00,00,
15006309,0000035A,false,Rx,0,3,1E,03,78,00,00,00,00,00,
15007309,00000102,false,Rx,0,8,00,00,64,72,79,72,6F,13,
15008335,00000104,false,Rx,0,8,00,7F,00,19,00,2C,0E,04,
15009355,0000010E,false,Rx,0,8,00,00,00,00,00,00,00,00,
15035537,000000B4,false,Rx,0,8,8C,18,EA,18,AC,62,02,20,
15036554,0000032A,false,Rx,0,3,1E,03,78,00,00,00,00,00,
15037544,00000332,false,Rx,0,3,1E,03,78,00,00,00,00,00,
15038553,00000280,false,Rx,0,8,14,CB,64,65,CB,88,6E,01,
15039590,00000180,false,Rx,0,1,01,00,00,00,00,00,00,00,
15040570,00000280,false,Rx,0,8,04,0F,F8,00,00,00,00,00,
15076718,00000288,false,Rx,0,5,06,10,FF,FF,FF,00,00,00,
15077704,00000288,false,Rx,0,4,08,00,00,00,00,00,00,00,
15107091,00000102,false,Rx,0,8,00,00,64,72,79,72,6F,13,
15108083,00000104,false,Rx,0,8,00,7F,00,19,00,2D,0E,04,
15109110,0000010E,false,Rx,0,8,00,00,00,00,00,00,00,00,
15138541,00000280,false,Rx,0,8,14,CB,64,65,CB,88,6E,01,
15139971,00000280,false,Rx,0,8,04,0F,F8,00,00,00,00,00,
15176695,00000288,false,Rx,0,5,06,10,FF,FF,FF,00,00,00,
15177717,00000288,false,Rx,0,4,08,00,00,00,00,00,00,00,
15206975,00000102,false,Rx,0,8,00,00,64,72,79,72,6F,13,
15207990,00000104,false,Rx,0,8,00,7F,00,19,00,2E,0D,04,
15208971,0000010E,false,Rx,0,8,00,00,00,00,00,00,00,00,
15230271,00000380,false,Rx,0,7,02,00,14,00,00,00,2F,00,
15239932,00000280,false,Rx,0,8,14,CB,64,65,CB,88,6E,01,
15241008,00000280,false,Rx,0,5,06,E1,06,12,1B,00,00,00,
15276683,00000288,false,Rx,0,5,06,10,FF,FF,FF,00,00,00,
15277716,00000288,false,Rx,0,4,08,00,00,00,00,00,00,00,
15293402,000000BA,false,Rx,0,8,78,80,A0,80,9D,85,04,00,
15307086,00000102,false,Rx,0,8,00,00,64,72,79,72,6F,13,
15308112,00000104,false,Rx,0,8,00,7F,00,19,00,2F,0E,04,
15309107,0000010E,false,Rx,0,8,00,00,00,00,00,00,00,00,
15311572,0000009A,false,Rx,0,8,78,80,C8,80,9C,85,04,50,
15312585,000000A2,false,Rx,0,8,78,80,C8,80,9D,85,04,40,
15313589,000000C2,false,Rx,0,8,78,80,C8,80,9E,85,04,10,
15326267,000000BC,false,Rx,0,8,A0,18,ED,18,0F,63,02,21,
15340175,00000280,false,Rx,0,8,14,CB,64,65,CB,88,6E,01,
15341550,00000280,false,Rx,0,8,04,0F,F8,00,00,00,00,00,
15344445,0000009C,false,Rx,0,8,A0,18,DC,18,E6,62,02,21,
15345462,000000A4,false,Rx,0,8,9F,18,DD,18,EC,62,02,21,
15346488,000000C4,false,Rx,0,8,7B,18,EE,18,CA,62,02,23,
15349831,000000D4,false,Rx,0,8,92,18,ED,18,05,63,02,23,
15376709,00000288,false,Rx,0,5,06,10,FF,FF,FF,00,00,00,
15377670,00000288,false,Rx,0,4,08,00,00,00,00,00,00,00,
15405505,000000B2,false,Rx,0,8,78,80,A0,80,9E,85,04,00,
15406971,0000008A,false,Rx,0,8,78,80,A0,80,9D,85,04,00,
15407968,00000102,false,Rx,0,8,00,00,64,72,79,72,6F,13,
15409023,000000CA,false,Rx,0,8,78,80,C8,80,9F,85,04,10,
15410012,00000104,false,Rx,0,8,00,7F,00,19,00,20,0D,05,
15411014,0000010E,false,Rx,0,8,00,00,00,00,00,00,00,00,
15412534,000000DA,false,Rx,0,8,78,80,C8,80,9A,85,04,60,
15413552,00000092,false,Rx,0,8,00,80,C8,80,24,85,04,10,
15438306,000000B4,false,Rx,0,8,8C,18,E9,18,AB,62,02,20,
15439939,0000008C,false,Rx,0,8,D3,18,13,19,98,63,02,20,
15441423,000000CC,false,Rx,0,8,B5,18,EE,18,5A,63,02,20,
15442369,00000280,false,Rx,0,8,14,CB,64,65,CB,88,6E,01,
15444100,00000280,false,Rx,0,8,04,0F,F8,00,00,00,00,00,
15445405,000000DC,false,Rx,0,8,BC,18,17,19,55,63,02,21,
15446430,00000094,false,Rx,0,8,9B,18,EC,18,F6,62,02,23,
15447423,000000D2,false,Rx,0,8,78,80,C8,80,9C,85,04,20,
15476730,00000288,false,Rx,0,5,06,10,FF,FF,FF,00,00,00,
15477846,00000288,false,Rx,0,8,04,00,53,1B,64,C7,06,00,
15478866,00000288,false,Rx,0,7,04,01,28,0E,BE,A7,17,00,
15479895,00000288,false,Rx,0,8,04,02,3D,CB,7C,F8,14,00,
15480987,00000288,false,Rx,0,7,04,03,32,39,0A,CE,46,00,
15481880,00000288,false,Rx,0,4,08,00,00,00,00,00,00,00,
15503220,000000AA,false,Rx,0,8,78,80,A0,80,9C,85,04,00,
15507063,00000102,false,Rx,0,8,00,00,64,72,79,72,6F,13,
15508032,00000104,false,Rx,0,8,00,7F,00,19,00,21,0E,04,
15509042,0000010E,false,Rx,0,8,00,00,00,00,00,00,00,00,
15536017,000000AC,false,Rx,0,8,90,18,E2,18,D0,62,02,23,
15541737,00000280,false,Rx,0,8,14,CB,64,65,CB,88,6E,01,
15543166,00000280,false,Rx,0,8,04,0F,F8,00,00,00,00,00,
15576667,00000288,false,Rx,0,5,06,10,FF,FF,FF,00,00,00,
15577696,00000288,false,Rx,0,4,08,00,00,00,00,00,00,00,
15607107,00000102,false,Rx,0,8,00,00,64,73,79,72,6F,13,
15608112,00000104,false,Rx,0,8,00,7F,00,19,00,22,0E,04,
15609136,0000010E,false,Rx,0,8,00,00,00,00,00,00,00,00,
15643119,00000280,false,Rx,0,8,14,CB,64,65,CB,88,6E,01,
15644186,00000280,false,Rx,0,5,10,65,65,31,02,00,00,00,
15669114,00000180,false,Rx,0,1,01,00,00,00,00,00,00,00,
15676826,00000288,false,Rx,0,5,06,10,FF,FF,FF,00,00,00,
15677732,00000288,false,Rx,0,4,08,00,00,00,00,00,00,00,
15707130,00000102,false,Rx,0,8,00,00,64,72,79,72,6F,13,
15708137,00000104,false,Rx,0,8,00,7F,00,19,00,23,0D,04,
15709112,0000010E,false,Rx,0,8,00,00,00,00,00,00,00,00,
15710057,0000010A,false,Rx,0,5,00,00,64,C0,00,00,00,00,
15711349,0000010C,false,Rx,0,3,00,00,00,00,00,00,00,00,
15743404,00000280,false,Rx,0,8,14,CB,64,65,CB,88,6E,01,
15744747,00000280,false,Rx,0,8,04,0F,F8,00,00,00,00,00,
15776652,00000288,false,Rx,0,5,06,10,FF,FF,FF,00,00,00,
15777721,00000288,false,Rx,0,4,08,00,00,00,00,00,00,00,
15778710,00000006,false,Rx,0,4,25,00,02,01,00,00,00,00,
15806960,00000102,false,Rx,0,8,00,00,64,72,79,72,6F,13,
15807980,00000104,false,Rx,0,8,00,7F,00,19,00,24,0D,04,
15808981,0000010E,false,Rx,0,8,00,00,00,00,00,00,00,00,
15810001,0000008A,false,Rx,0,8,78,80,A0,80,9D,85,04,00,
15812628,000000A2,false,Rx,0,8,78,80,A0,80,9D,85,04,00,
15813630,000000C2,false,Rx,0,8,78,80,C8,80,9E,85,04,10,
15815283,000000DA,false,Rx,0,8,78,80,C8,80,9A,85,04,60,
15817280,000000D2,false,Rx,0,8,78,80,C8,80,9C,85,04,20,
15831928,00000380,false,Rx,0,6,09,74,19,29,1B,02,00,00,
15842586,0000008C,false,Rx,0,8,D8,18,0A,19,98,63,02,23,
15844118,0000009C,false,Rx,0,8,A4,18,DE,18,E9,62,02,21,
15845135,00000280,false,Rx,0,8,14,CB,64,65,CB,88,6E,01,
15846162,000000A4,false,Rx,0,8,9F,18,DD,18,EA,62,02,21,
15847157,000000C4,false,Rx,0,8,79,18,EE,18,C1,62,02,23,
15848124,00000280,false,Rx,0,8,04,0F,F8,00,00,00,00,00,
15849160,000000DC,false,Rx,0,8,BC,18,17,19,54,63,02,21,
15850177,000000D4,false,Rx,0,8,8C,18,EB,18,07,63,02,23,
15876698,00000288,false,Rx,0,5,06,10,FF,FF,FF,00,00,00,
15877686,00000288,false,Rx,0,4,08,00,00,00,00,00,00,00,
15890705,000000BA,false,Rx,0,8,78,80,A0,80,9D,85,04,00,
15905538,000000B2,false,Rx,0,8,78,80,A0,80,9E,85,04,00,
15906517,000000AA,false,Rx,0,8,78,80,A0,80,9C,85,04,00,
15907521,00000102,false,Rx,0,8,00,00,64,72,79,72,6F,13,
15908517,00000104,false,Rx,0,8,00,7F,00,19,00,25,0E,04,
15909541,000000CA,false,Rx,0,8,78,80,C8,80,9F,85,04,10,
15910537,0000010E,false,Rx,0,8,00,00,00,00,00,00,00,00,
15913246,00000092,false,Rx,0,8,00,80,C8,80,24,85,04,10,
15923564,000000BC,false,Rx,0,8,A2,18,ED,18,11,63,02,21,
15938327,000000B4,false,Rx,0,8,8C,18,EA,18,AD,62,02,20,
15939375,000000AC,false,Rx,0,8,92,18,E1,18,DA,62,02,23,
15941485,000000CC,false,Rx,0,8,B1,18,EE,18,56,63,02,20,
15942396,0000009A,false,Rx,0,8,78,80,C8,80,9C,85,04,10,
15945009,00000280,false,Rx,0,8,14,CB,64,65,CB,88,6E,01,
15946117,00000094,false,Rx,0,8,99,18,EC,18,F9,62,02,23,
15947121,00000280,false,Rx,0,8,04,0F,F8,00,00,00,00,00,
15949221,00000180,false,Rx,0,1,01,00,00,00,00,00,00,00,
15976733,00000288,false,Rx,0,5,06,10,FF,FF,FF,00,00,00,
15977722,00000288,false,Rx,0,4,08,00,00,00,00,00,00,00,
16007042,00000102,false,Rx,0,8,00,00,64,72,79,72,6F,13,
16008038,00000104,false,Rx,0,8,00,7F,00,19,00,26,0D,04,
16009048,0000010E,false,Rx,0,8,00,00,00,00,00,00,00,00,
16046252,00000280,false,Rx,0,8,14,CB,64,65,CB,88,6E,01,
16047674,00000280,false,Rx,0,8,04,0F,F8,00,00,00,00,00,
16076697,00000288,false,Rx,0,5,06,10,FF,FF,FF,00,00,00,
16077725,00000288,false,Rx,0,4,08,00,00,00,00,00,00,00,
16107155,00000102,false,Rx,0,8,00,00,64,72,79,72,6F,13,
16108140,00000104,false,Rx,0,8,00,7F,00,19,00,27,0D,04,
16109135,0000010E,false,Rx,0,8,00,00,00,00,00,00,00,00,
16146683,00000280,false,Rx,0,8,14,CB,64,65,CB,88,6E,01,
16147941,00000280,false,Rx,0,8,04,0F,F8,00,00,00,00,00,
16176714,00000288,false,Rx,0,5,06,10,FF,FF,FF,00,00,00,
16177705,00000288,false,Rx,0,4,08,00,00,00,00,00,00,00,
16207078,00000102,false,Rx,0,8,00,00,64,72,79,72,6F,13,
16208083,00000104,false,Rx,0,8,00,7F,00,19,00,28,0E,04,
16209101,0000010E,false,Rx,0,8,00,00,00,00,00,00,00,00,
16233317,00000380,false,Rx,0,7,02,00,14,00,00,00,33,00,
16247959,00000280,false,Rx,0,8,14,CB,64,65,CB,88,6E,01,
16248926,00000280,false,Rx,0,5,06,E1,06,12,1B,00,00,00,
16276685,00000288,false,Rx,0,5,06,10,FF,FF,FF,00,00,00,
16277693,00000288,false,Rx,0,4,08,00,00,00,00,00,00,00,
16293453,000000BA,false,Rx,0,8,78,80,A0,80,9D,85,04,00,
16306957,00000102,false,Rx,0,8,00,00,64,72,79,72,6F,13,
16307970,00000104,false,Rx,0,8,00,7F,00,19,00,29,0E,04,
16308996,0000010E,false,Rx,0,8,00,00,00,00,00,00,00,00,
16309985,0000008A,false,Rx,0,8,78,80,A0,80,9D,85,04,00,
16312568,000000A2,false,Rx,0,8,78,80,C8,80,9D,85,04,60,
16313624,000000C2,false,Rx,0,8,78,80,C8,80,9E,85,04,40,
16315290,000000DA,false,Rx,0,8,78,80,C7,80,9A,85,04,10,
16317334,000000D2,false,Rx,0,8,78,80,C8,80,9C,85,04,00,
16326296,000000BC,false,Rx,0,8,A2,18,EC,18,13,63,02,21,
16342599,0000008C,false,Rx,0,8,D6,18,20,19,B5,63,02,20,
16345459,000000A4,false,Rx,0,8,9F,18,DF,18,E8,62,02,21,
16346467,000000C4,false,Rx,0,8,7A,18,EE,18,C9,62,02,23,
16348168,00000280,false,Rx,0,8,14,CB,64,65,CB,88,6E,01,
16349177,000000DC,false,Rx,0,8,BD,18,19,19,58,63,02,21,
16350202,00000280,false,Rx,0,8,04,0F,F8,00,00,00,00,00,
16351188,000000D4,false,Rx,0,8,8F,18,EC,18,07,63,02,23,
16376699,00000288,false,Rx,0,5,06,10,FF,FF,FF,00,00,00,
16377684,00000288,false,Rx,0,4,08,00,00,00,00,00,00,00,
16405948,000000AA,false,Rx,0,8,78,80,A0,80,9C,85,04,00,
16407157,00000102,false,Rx,0,8,00,00,64,72,79,72,6F,13,
16407975,00000104,false,Rx,0,8,00,7F,00,19,00,2A,0E,04,
16409161,000000CA,false,Rx,0,8,78,80,C8,80,9F,85,04,10,
16409968,0000009A,false,Rx,0,8,78,80,A0,80,9C,85,04,00,
16410987,0000010E,false,Rx,0,8,00,00,00,00,00,00,00,00,
16413290,00000092,false,Rx,0,8,00,80,C8,80,24,85,04,10,
16438796,000000AC,false,Rx,0,8,95,18,E3,18,DA,62,02,23,
16441413,000000CC,false,Rx,0,8,B5,18,EE,18,57,63,02,20,
16442424,0000009C,false,Rx,0,8,A3,18,DC,18,ED,62,02,21,
16446128,00000094,false,Rx,0,8,9A,18,EC,18,F8,62,02,23,
16449537,00000280,false,Rx,0,8,14,CB,64,65,CB,88,6E,01,
16450868,00000280,false,Rx,0,8,04,0F,F8,00,00,00,00,00,
16476795,00000288,false,Rx,0,5,06,10,FF,FF,FF,00,00,00,
16477863,00000288,false,Rx,0,8,04,00,54,1B,64,C7,06,00,
16478881,00000288,false,Rx,0,7,04,01,28,0E,BE,A7,17,00,
16479882,00000288,false,Rx,0,8,04,02,69,CC,7C,F8,14,00,
16480907,00000288,false,Rx,0,7,04,03,42,3D,0A,CE,46,00,
16481919,00000288,false,Rx,0,4,08,00,00,00,00,00,00,00,
16502747,000000B2,false,Rx,0,8,78,80,A0,80,9E,85,04,00,
16507089,00000102,false,Rx,0,8,00,00,64,72,79,72,6F,13,
16508105,00000104,false,Rx,0,8,00,7F,00,19,00,2B,0E,04,
16509093,0000010E,false,Rx,0,8,00,00,00,00,00,00,00,00,
16535575,000000B4,false,Rx,0,8,8C,18,E9,18,AB,62,02,20,
16540225,00000180,false,Rx,0,1,01,00,00,00,00,00,00,00,
16549761,00000280,false,Rx,0,8,14,CB,64,65,CB,88,6E,01,
16551133,00000280,false,Rx,0,8,04,0F,F8,00,00,00,00,00,
16576690,00000288,false,Rx,0,5,06,10,FF,FF,FF,00,00,00,
16577701,00000288,false,Rx,0,4,08,00,00,00,00,00,00,00,
16607101,00000102,false,Rx,0,8,00,00,64,72,79,72,6F,13,
16608087,00000104,false,Rx,0,8,00,7F,00,19,00,2C,0E,04,
16609081,0000010E,false,Rx,0,8,00,00,00,00,00,00,00,00,
16651103,00000280,false,Rx,0,8,14,CB,64,65,CB,88,6E,01,
16652152,00000280,false,Rx,0,5,10,65,65,31,02,00,00,00,
16676745,00000288,false,Rx,0,5,06,FF,FE,FF,FF,00,00,00,
16677734,00000288,false,Rx,0,4,08,00,00,00,00,00,00,00,
16707004,00000102,false,Rx,0,8,00,00,64,72,79,72,6F,13,
16708049,00000104,false,Rx,0,8,00,7F,00,19,00,2D,0D,04,
16709055,0000010E,false,Rx,0,8,00,00,00,00,00,00,00,00,
16719314,0000010A,false,Rx,0,5,00,00,64,C0,00,00,00,00,
16720375,0000010C,false,Rx,0,3,00,00,00,00,00,00,00,00,
16751395,00000280,false,Rx,0,8,14,CB,64,65,CB,88,6E,01,
16752744,00000280,false,Rx,0,8,04,0F,F8,00,00,00,00,00,
16776676,00000288,false,Rx,0,5,06,10,FF,FF,FF,00,00,00,
16777698,00000288,false,Rx,0,4,08,00,00,00,00,00,00,00,
16793512,000000BA,false,Rx,0,8,78,80,A0,80,9D,85,04,01,
16812718,00000102,false,Rx,0,8,00,00,64,72,79,72,6F,13,
16813781,000000C2,false,Rx,0,8,78,80,C8,80,9E,85,04,20,
16814784,0000010E,false,Rx,0,8,00,00,00,00,00,00,00,00,
16815785,000000DA,false,Rx,0,8,78,80,C7,80,9A,85,04,70,
16816798,00000104,false,Rx,0,8,00,7F,00,19,00,2E,0E,04,
16817805,000000D2,false,Rx,0,8,78,80,A0,80,9C,85,04,00,
16826361,000000BC,false,Rx,0,8,9F,18,EC,18,0F,63,02,21,
16834996,00000380,false,Rx,0,6,09,74,19,29,1B,02,00,00,
16845167,000000A4,false,Rx,0,8,9F,18,DF,18,EC,62,02,21,
16846174,000000C4,false,Rx,0,8,7A,18,EF,18,C6,62,02,23,
16848245,000000DC,false,Rx,0,8,BE,18,1A,19,5A,63,02,21,
16850245,000000D4,false,Rx,0,8,8D,18,EB,18,0B,63,02,23,
16852690,00000280,false,Rx,0,8,14,CB,64,65,CB,88,6E,01,
16854056,00000280,false,Rx,0,8,04,0F,F8,00,00,00,00,00,
16855584,00000006,false,Rx,0,4,25,00,02,01,00,00,00,00,
16876716,00000288,false,Rx,0,5,06,FF,FE,FF,FF,00,00,00,
16877688,00000288,false,Rx,0,4,08,00,00,00,00,00,00,00,
16905498,000000B2,false,Rx,0,8,78,80,A0,80,9E,85,04,00,
16906510,000000AA,false,Rx,0,8,78,80,C7,80,9C,85,04,40,
16907508,0000008A,false,Rx,0,8,78,80,C7,80,9D,85,04,50,
16908524,00000102,false,Rx,0,8,00,00,64,73,7A,72,6F,13,
16909619,0000009A,false,Rx,0,8,78,80,A0,80,9C,85,04,00,
16910570,000000CA,false,Rx,0,8,78,80,C8,80,9F,85,04,40,
16911526,00000104,false,Rx,0,8,00,7F,00,19,00,2F,0E,04,
16912572,0000010E,false,Rx,0,8,00,00,00,00,00,00,00,00,
16913573,00000092,false,Rx,0,8,00,80,C8,80,24,85,04,10,
16938423,000000B4,false,Rx,0,8,8C,18,E9,18,AC,62,02,20,
16939373,000000AC,false,Rx,0,8,92,18,E7,18,D7,62,02,23,
16940380,0000008C,false,Rx,0,8,D0,18,1D,19,AD,63,02,23,
16941403,000000CC,false,Rx,0,8,B6,18,EC,18,56,63,02,20,
16942426,0000009C,false,Rx,0,8,A1,18,DD,18,EB,62,02,23,
16943471,000000A2,false,Rx,0,8,78,80,C8,80,9D,85,04,00,
16946210,00000094,false,Rx,0,8,9D,18,ED,18,FF,62,02,23,
16950326,00000180,false,Rx,0,1,01,00,00,00,00,00,00,00,
16952986,00000280,false,Rx,0,8,14,CB,64,65,CB,88,6E,01,
16954287,00000280,false,Rx,0,8,04,0F,F8,00,00,00,00,00,
16976746,00000288,false,Rx,0,5,06,FF,FE,FF,FF,00,00,00,
16977729,00000288,false,Rx,0,4,08,00,00,00,00,00,00,00,
17007095,00000102,false,Rx,0,8,00,00,64,72,79,72,6F,13,
17008079,00000104,false,Rx,0,8,00,7F,00,19,00,20,0D,04,
17009112,0000010E,false,Rx,0,8,00,00,00,00,00,00,00,00,
17054278,00000280,false,Rx,0,8,14,CB,64,65,CB,88,6E,01,
17055659,00000280,false,Rx,0,8,04,0F,F8,00,00,00,00,00,
17076706,00000288,false,Rx,0,5,06,FF,FE,FF,FF,00,00,00,
17077663,00000288,false,Rx,0,4,08,00,00,00,00,00,00,00,
17106989,00000102,false,Rx,0,8,00,00,64,72,79,72,6F,13,
17107981,00000104,false,Rx,0,8,00,7F,00,18,00,21,0E,04,
17108988,0000010E,false,Rx,0,8,00,00,00,00,00,00,00,00,
17154551,00000280,false,Rx,0,8,14,CB,64,65,CB,88,6E,01,
17155923,00000280,false,Rx,0,8,04,0F,F8,00,00,00,00,00,
17176673,00000288,false,Rx,0,5,06,10,FF,FF,FF,00,00,00,
17177688,00000288,false,Rx,0,4,08,00,00,00,00,00,00,00,
17207072,00000102,false,Rx,0,8,00,00,64,72,79,72,6F,13,
17208093,00000104,false,Rx,0,8,00,7F,00,19,00,22,0E,04,
17209106,0000010E,false,Rx,0,8,00,00,00,00,00,00,00,00,
17236321,00000380,false,Rx,0,7,02,00,14,00,00,00,37,00,
17255927,00000280,false,Rx,0,8,14,CB,64,65,CB,88,6E,01,
17256941,00000280,false,Rx,0,5,06,E1,06,12,1B,00,00,00,
17276720,00000288,false,Rx,0,5,06,FF,FE,FF,FF,00,00,00,
17277712,00000288,false,Rx,0,4,08,00,00,00,00,00,00,00,
17306865,00000102,false,Rx,0,8,00,00,64,72,79,72,6F,13,
17307855,00000104,false,Rx,0,8,00,7F,00,18,00,23,0D,04,
17308873,0000010E,false,Rx,0,8,00,00,00,00,00,00,00,00,
17311663,0000009A,false,Rx,0,8,78,80,A0,80,9C,85,04,00,
17312888,000000C2,false,Rx,0,8,78,80,C8,80,9E,85,04,00,
17326086,000000BC,false,Rx,0,8,A0,18,EB,18,14,63,02,21,
17344518,0000009C,false,Rx,0,8,A0,18,DA,18,E6,62,02,23,
17345769,000000C4,false,Rx,0,8,7C,18,EE,18,C9,62,02,23,
17347902,000000DC,false,Rx,0,8,B9,18,1A,19,53,63,02,21,
17356149,00000280,false,Rx,0,8,14,CB,64,65,CB,88,6E,01,
17357525,00000280,false,Rx,0,8,04,0F,F8,00,00,00,00,00,
17376710,00000288,false,Rx,0,5,06,FF,FE,FF,FF,00,00,00,
17377711,00000288,false,Rx,0,4,08,00,00,00,00,00,00,00,
17405521,000000B2,false,Rx,0,8,78,80,A0,80,9E,85,04,00,
17407006,00000102,false,Rx,0,8,00,00,64,73,79,72,6F,13,
17408002,0000008A,false,Rx,0,8,78,80,A0,80,9D,85,04,00,
17409018,000000CA,false,Rx,0,8,78,80,C8,80,9F,85,04,10,
17410015,0000010E,false,Rx,0,8,00,00,00,00,00,00,00,00,
17411173,000000A2,false,Rx,0,8,78,80,C7,80,9D,85,04,10,
17412036,00000104,false,Rx,0,8,00,7F,00,19,00,24,0D,04,
17413342,00000092,false,Rx,0,8,00,80,C8,80,FC,84,04,10,
17414622,000000D2,false,Rx,0,8,78,80,C8,80,9C,85,04,20,
17423655,000000BA,false,Rx,0,8,78,80,A0,80,9D,85,04,00,
17438391,000000B4,false,Rx,0,8,8C,18,E9,18,AD,62,02,20,
17439382,000000AC,false,Rx,0,8,8F,18,E2,18,D9,62,02,23,
17440402,0000008C,false,Rx,0,8,CE,18,0F,19,9D,63,02,23,
17441452,000000CC,false,Rx,0,8,B7,18,EC,18,56,63,02,20,
17442733,000000A4,false,Rx,0,8,9F,18,DE,18,EB,62,02,21,
17445513,000000DA,false,Rx,0,8,78,80,A0,80,9A,85,04,00,
17446673,00000094,false,Rx,0,8,9D,18,EC,18,FC,62,02,23,
17447535,000000D4,false,Rx,0,8,91,18,EE,18,0C,63,02,23,
17457524,00000280,false,Rx,0,8,14,CB,64,65,CB,88,6E,01,
17458986,00000280,false,Rx,0,8,04,0F,F8,00,00,00,00,00,
17476675,00000288,false,Rx,0,5,06,FF,FE,FF,FF,00,00,00,
17477809,00000288,false,Rx,0,8,04,00,55,1B,64,C7,06,00,
17478821,00000288,false,Rx,0,7,04,01,28,0E,BE,A7,17,00,
17479835,00000288,false,Rx,0,8,04,02,A0,CD,7C,F8,14,00,
17480891,00000288,false,Rx,0,7,04,03,7E,41,0A,CE,46,00,
17481931,00000288,false,Rx,0,4,08,00,00,00,00,00,00,00,
17507074,00000102,false,Rx,0,8,00,00,64,73,7A,72,6F,13,
17508067,00000104,false,Rx,0,8,00,7F,00,19,00,25,0E,04,
17509091,0000010E,false,Rx,0,8,00,00,00,00,00,00,00,00,
17536106,000000AA,false,Rx,0,8,78,80,C8,80,9C,85,04,60,
17540878,00000180,false,Rx,0,1,01,00,00,00,00,00,00,00,
17557737,00000280,false,Rx,0,8,14,CB,64,65,CB,88,6E,01,
17559112,00000280,false,Rx,0,8,04,0F,F8,00,00,00,00,00,
17576700,00000288,false,Rx,0,5,06,FF,FE,FF,FF,00,00,00,
17577715,00000288,false,Rx,0,4,08,00,00,00,00,00,00,00,
17607103,00000102,false,Rx,0,8,00,00,64,72,79,72,6F,13,
17608057,00000104,false,Rx,0,8,00,7F,00,19,00,26,0D,04,
17609035,0000010E,false,Rx,0,8,00,00,00,00,00,00,00,00,
17659075,00000280,false,Rx,0,8,14,CB,64,65,CB,88,6E,01,
17660156,00000280,false,Rx,0,5,10,65,65,31,02,00,00,00,
17676740,00000288,false,Rx,0,5,06,FF,FE,FF,FF,00,00,00,
17677726,00000288,false,Rx,0,4,08,00,00,00,00,00,00,00,
17713198,00000102,false,Rx,0,8,00,00,64,72,79,72,6F,13,
17714183,00000104,false,Rx,0,8,00,7F,00,19,00,27,0E,04,
17715169,0000010E,false,Rx,0,8,00,00,00,00,00,00,00,00,
17731010,0000010A,false,Rx,0,5,00,00,64,C0,00,00,00,00,
17732000,0000010C,false,Rx,0,3,00,00,00,00,00,00,00,00,
17759351,00000280,false,Rx,0,8,14,CB,64,65,CB,88,6E,01,
17760716,00000280,false,Rx,0,8,04,0F,F8,00,00,00,00,00,
17776703,00000288,false,Rx,0,5,06,FF,FE,FF,FF,00,00,00,
17777707,00000288,false,Rx,0,4,08,00,00,00,00,00,00,00,
17806986,00000102,false,Rx,0,8,00,00,64,72,79,72,6F,13,
17807986,00000104,false,Rx,0,8,00,7F,00,19,00,28,0E,04,
17809000,0000010E,false,Rx,0,8,00,00,00,00,00,00,00,00,
17809996,0000008A,false,Rx,0,8,78,80,A0,80,9D,85,04,00,
17811664,0000009A,false,Rx,0,8,78,80,A0,80,9C,85,04,00,
17812924,000000C2,false,Rx,0,8,78,80,C8,80,9E,85,04,10,
17817385,000000D2,false,Rx,0,8,78,80,C8,80,9C,85,04,20,
17838113,00000380,false,Rx,0,6,09,74,19,29,1B,02,00,00,
17842664,0000008C,false,Rx,0,8,D1,18,13,19,A6,63,02,23,
17844517,0000009C,false,Rx,0,8,A0,18,DA,18,E8,62,02,23,
17845765,000000C4,false,Rx,0,8,77,18,ED,18,C7,62,02,23,
17850256,000000D4,false,Rx,0,8,8F,18,ED,18,0E,63,02,23,
17860674,00000280,false,Rx,0,8,14,CB,64,65,CB,88,6E,01,
17862037,00000280,false,Rx,0,8,04,0F,F8,00,00,00,00,00,
17876709,00000288,false,Rx,0,5,06,FF,FE,FF,FF,00,00,00,
17877715,00000288,false,Rx,0,4,08,00,00,00,00,00,00,00,
17879176,00000006,false,Rx,0,4,25,00,02,01,00,00,00,00,
17890813,000000BA,false,Rx,0,8,78,80,A0,80,9D,85,04,00,
17907071,00000102,false,Rx,0,8,00,00,64,72,79,72,6F,13,
17908065,00000104,false,Rx,0,8,00,7F,00,19,00,29,0D,04,
17909241,000000CA,false,Rx,0,8,78,80,C8,80,9F,85,04,10,
17910257,000000A2,false,Rx,0,8,78,80,C7,80,9D,85,04,10,
17911117,0000010E,false,Rx,0,8,00,00,00,00,00,00,00,00,
17912629,000000DA,false,Rx,0,8,78,80,A0,80,9A,85,04,00,
17913647,00000092,false,Rx,0,8,00,80,C8,80,24,85,04,10,
17923844,000000BC,false,Rx,0,8,A2,18,ED,18,11,63,02,21,
17941471,000000CC,false,Rx,0,8,B7,18,EC,18,57,63,02,20,
17942753,000000A4,false,Rx,0,8,A2,18,DE,18,ED,62,02,21,
17945533,000000DC,false,Rx,0,8,BD,18,1C,19,59,63,02,21,
17946539,00000094,false,Rx,0,8,9C,18,ED,18,FB,62,02,23,
17960958,00000280,false,Rx,0,8,14,CB,64,65,CB,88,6E,01,
17962309,00000280,false,Rx,0,8,04,0F,F8,00,00,00,00,00,
17976732,00000288,false,Rx,0,5,06,FF,FE,FF,FF,00,00,00,
17977806,00000288,false,Rx,0,4,08,00,00,00,00,00,00,00,
18002784,000000B2,false,Rx,0,8,78,80,A0,80,9E,85,04,00,
18003756,000000AA,false,Rx,0,8,78,80,C8,80,9C,85,04,20,
18007101,00000102,false,Rx,0,8,00,00,64,72,79,72,6F,13,
18008092,00000104,false,Rx,0,8,00,7F,00,19,00,2A,0D,04,
18009127,0000010E,false,Rx,0,8,00,00,00,00,00,00,00,00,
18035590,000000B4,false,Rx,0,8,8C,18,E9,18,AD,62,02,20,
18036594,000000AC,false,Rx,0,8,95,18,E6,18,DC,62,02,23,
18038996,00000180,false,Rx,0,1,01,00,00,00,00,00,00,00,
18062267,00000280,false,Rx,0,8,14,CB,64,65,CB,88,6E,01,
18063625,00000280,false,Rx,0,8,04,0F,F8,00,00,00,00,00,
18076698,00000288,false,Rx,0,5,06,FF,FE,FF,FF,00,00,00,
18077698,00000288,false,Rx,0,4,08,00,00,00,00,00,00,00,
18107086,00000102,false,Rx,0,8,00,00,64,72,79,72,6F,13,
18108078,00000104,false,Rx,0,8,00,7F,00,19,00,2B,0E,04,
18109075,0000010E,false,Rx,0,8,00,00,00,00,00,00,00,00,
18162493,00000280,false,Rx,0,8,14,CB,64,65,CB,88,6E,01,
18163868,00000280,false,Rx,0,8,04,0F,F8,00,00,00,00,00,
18176714,00000288,false,Rx,0,5,06,FF,FE,FF,FF,00,00,00,
18177736,00000288,false,Rx,0,4,08,00,00,00,00,00,00,00,
18206956,00000102,false,Rx,0,8,00,00,64,72,79,72,6F,13,
18207984,00000104,false,Rx,0,8,00,7F,00,19,00,2C,0E,04,
18208990,0000010E,false,Rx,0,8,00,00,00,00,00,00,00,00,
18239483,00000380,false,Rx,0,7,02,00,14,00,00,00,3B,00,
18263884,00000280,false,Rx,0,8,14,CB,64,65,CB,88,6E,01,
18264926,00000280,false,Rx,0,5,06,E1,06,12,1B,00,00,00,
18276679,00000288,false,Rx,0,5,06,10,FF,FF,FF,00,00,00,
18277700,00000288,false,Rx,0,4,08,00,00,00,00,00,00,00,
18293586,000000BA,false,Rx,0,8,78,80,A0,80,9D,85,04,00,
18307078,00000102,false,Rx,0,8,00,00,64,72,79,72,6F,13,
18308086,00000104,false,Rx,0,8,00,7F,00,19,00,2D,0D,04,
18309088,0000010E,false,Rx,0,8,00,00,00,00,00,00,00,00,
18310109,0000008A,false,Rx,0,8,78,80,C8,80,9D,85,04,00,
18311651,0000009A,false,Rx,0,8,78,80,A0,80,9C,85,04,00,
18312681,000000A2,false,Rx,0,8,78,80,C7,80,9D,85,04,10,
18313706,000000C2,false,Rx,0,8,78,80,C8,80,9E,85,04,10,
18315394,000000DA,false,Rx,0,8,78,80,A0,80,9A,85,04,00,
18316423,00000092,false,Rx,0,8,00,80,C8,80,24,85,04,10,
18326485,000000BC,false,Rx,0,8,9F,18,EB,18,0D,63,02,21,
18342686,0000008C,false,Rx,0,8,C8,18,1C,19,A3,63,02,20,
18344526,0000009C,false,Rx,0,8,A3,18,DC,18,EB,62,02,23,
18345549,000000A4,false,Rx,0,8,9F,18,DE,18,EC,62,02,21,
18346557,000000C4,false,Rx,0,8,79,18,EF,18,C4,62,02,23,
18348286,000000DC,false,Rx,0,8,BC,18,18,19,57,63,02,23,
18349270,00000094,false,Rx,0,8,9B,18,ED,18,FC,62,02,23,
18364125,00000280,false,Rx,0,8,14,CB,64,65,CB,88,6E,01,
18365501,00000280,false,Rx,0,8,04,0F,F8,00,00,00,00,00,
18376681,00000288,false,Rx,0,5,06,10,FF,FF,FF,00,00,00,
18377639,00000288,false,Rx,0,4,08,00,00,00,00,00,00,00,
18407072,00000102,false,Rx,0,8,00,00,64,72,7A,72,6F,13,
18408070,00000104,false,Rx,0,8,00,7F,00,19,00,2E,0D,04,
18409085,000000CA,false,Rx,0,8,78,80,C8,80,9F,85,04,30,
18410091,0000010E,false,Rx,0,8,00,00,00,00,00,00,00,00,
18414689,000000D2,false,Rx,0,8,78,80,A0,80,9C,85,04,00,
18438088,000000B4,false,Rx,0,8,8C,18,E9,18,AC,62,02,20,
18441455,000000CC,false,Rx,0,8,B1,18,EE,18,57,63,02,20,
18447585,000000D4,false,Rx,0,8,90,18,EC,18,0C,63,02,23,
18465481,00000280,false,Rx,0,8,14,CB,64,65,CB,88,6E,01,
18466860,00000280,false,Rx,0,8,04,0F,F8,00,00,00,00,00,
18476722,00000288,false,Rx,0,5,06,FF,FE,FF,FF,00,00,00,
18477852,00000288,false,Rx,0,8,04,00,56,1B,64,C7,06,00,
18478875,00000288,false,Rx,0,7,04,01,28,0E,BE,A7,17,00,
18479873,00000288,false,Rx,0,8,04,02,DC,CE,7C,F8,14,00,
18481000,00000288,false,Rx,0,7,04,03,CE,45,0A,CE,46,00,
18482008,00000288,false,Rx,0,4,08,00,00,00,00,00,00,00,
18503273,000000AA,false,Rx,0,8,78,80,C8,80,9C,85,04,30,
18507044,00000102,false,Rx,0,8,00,00,64,72,7A,72,6F,13,
18508035,00000104,false,Rx,0,8,00,7F,00,19,00,2F,0D,04,
18509060,0000010E,false,Rx,0,8,00,00,00,00,00,00,00,00,
18535655,000000B2,false,Rx,0,8,78,80,A0,80,9E,85,04,00,
18536625,000000AC,false,Rx,0,8,8F,18,E2,18,D9,62,02,23,
18540724,00000180,false,Rx,0,1,01,00,00,00,00,00,00,00,
18569099,00000280,false,Rx,0,8,14,CB,99,31,CB,88,B6,01,
18570481,00000280,false,Rx,0,8,04,0F,F8,00,00,00,00,00,
18576693,00000288,false,Rx,0,5,06,FF,FE,FF,FF,00,00,00,
18577707,00000288,false,Rx,0,4,08,00,00,00,00,00,00,00,
18607039,00000102,false,Rx,0,8,00,00,64,73,7A,72,6F,13,
18608039,00000104,false,Rx,0,8,00,7F,00,19,00,20,0E,04,
18609057,0000010E,false,Rx,0,8,00,00,00,00,00,00,00,00,
18667038,00000280,false,Rx,0,8,14,CB,78,52,CB,88,96,01,
18668196,00000280,false,Rx,0,5,10,64,65,31,03,00,00,00,
18676729,00000288,false,Rx,0,5,06,FF,FE,FF,FF,00,00,00,
18677724,00000288,false,Rx,0,4,08,00,00,00,00,00,00,00,
18680335,00000006,false,Rx,0,3,1E,03,78,00,00,00,00,00,
18681324,0000030A,false,Rx,0,3,1E,03,78,00,00,00,00,00,
18682352,00000312,false,Rx,0,3,1E,03,78,00,00,00,00,00,
18682352,0000031A,false,Rx,0,3,1E,03,78,00,00,00,00,00,
18683350,00000322,false,Rx,0,3,1E,03,78,00,00,00,00,00,
18683350,0000032A,false,Rx,0,3,1E,03,78,00,00,00,00,00,
18684307,00000332,false,Rx,0,3,1E,03,78,00,00,00,00,00,
18685371,0000033A,false,Rx,0,3,1E,03,78,00,00,00,00,00,
18685371,00000342,false,Rx,0,3,1E,03,78,00,00,00,00,00,
18686461,0000034A,false,Rx,0,3,1E,03,78,00,00,00,00,00,
18686462,00000352,false,Rx,0,3,1E,03,78,00,00,00,00,00,
18687376,0000035A,false,Rx,0,3,1E,03,78,00,00,00,00,00,
18707021,00000102,false,Rx,0,8,00,00,64,72,79,72,6F,13,
18708113,00000104,false,Rx,0,8,00,7F,00,19,00,21,0E,04,
18709134,0000010E,false,Rx,0,8,00,00,00,00,00,00,00,00,
18751368,0000010A,false,Rx,0,5,00,00,64,C0,00,00,00,00,
18752336,0000010C,false,Rx,0,3,00,00,00,00,00,00,00,00,
18767317,00000280,false,Rx,0,8,14,CB,6C,5D,CB,88,7A,01,
18768690,00000280,false,Rx,0,8,04,0F,F8,00,00,00,00,00,
18776695,00000288,false,Rx,0,5,06,FF,FE,FF,FF,00,00,00,
18777699,00000288,false,Rx,0,4,08,00,00,00,00,00,00,00,
18793643,000000BA,false,Rx,0,8,78,80,A0,80,9D,85,04,00,
18806785,00000102,false,Rx,0,8,00,00,64,72,79,72,6F,13,
18807799,00000104,false,Rx,0,8,00,7F,00,19,00,22,0D,04,
18808819,0000010E,false,Rx,0,8,00,00,00,00,00,00,00,00,
18809798,0000008A,false,Rx,0,8,78,80,A0,80,9D,85,04,00,
18811678,0000009A,false,Rx,0,8,78,80,C8,80,9C,85,04,70,
18812958,000000C2,false,Rx,0,8,78,80,C8,80,9E,85,04,10,
18815424,000000DA,false,Rx,0,8,78,80,A0,80,9A,85,04,00,
18816462,00000092,false,Rx,0,8,00,80,C8,80,24,85,04,10,
18817445,000000D2,false,Rx,0,8,78,80,A0,80,9C,85,04,00,
18826467,000000BC,false,Rx,0,8,A3,18,ED,18,13,63,02,21,
18841200,00000380,false,Rx,0,6,09,74,19,29,1B,02,00,00,
18842678,0000008C,false,Rx,0,8,D0,18,13,19,A7,63,02,23,
18844540,0000009C,false,Rx,0,8,A4,18,DE,18,EF,62,02,23,
18845831,000000C4,false,Rx,0,8,7B,18,EF,18,CA,62,02,23,
18848277,000000DC,false,Rx,0,8,BA,18,1B,19,55,63,02,21,
18849263,00000094,false,Rx,0,8,9C,18,ED,18,FB,62,02,23,
18850258,000000D4,false,Rx,0,8,8F,18,EB,18,08,63,02,23,
18868638,00000280,false,Rx,0,8,14,CB,68,62,CB,88,52,01,
18870012,00000280,false,Rx,0,8,04,0F,F8,00,00,00,00,00,
18876651,00000288,false,Rx,0,5,06,FF,FE,FF,FF,00,00,00,
18877695,00000288,false,Rx,0,4,08,00,00,00,00,00,00,00,
18905661,000000B2,false,Rx,0,8,78,80,A0,80,9E,85,04,00,
18906591,000000AA,false,Rx,0,8,78,80,C8,80,9C,85,04,30,
18907590,00000102,false,Rx,0,8,00,00,64,72,79,72,6F,13,
18908590,00000104,false,Rx,0,8,00,7F,00,19,00,23,0D,04,
18909615,000000CA,false,Rx,0,8,78,80,C8,80,9F,85,04,20,
18910596,000000A2,false,Rx,0,8,78,80,C7,80,9D,85,04,10,
18911610,0000010E,false,Rx,0,8,00,00,00,00,00,00,00,00,
18938428,000000B4,false,Rx,0,8,8C,18,EB,18,AD,62,02,20,
18939492,000000AC,false,Rx,0,8,91,18,E2,18,D0,62,02,23,
18941521,000000CC,false,Rx,0,8,B0,18,ED,18,53,63,02,20,
18942830,000000A4,false,Rx,0,8,9F,18,DE,18,EC,62,02,21,
18968945,00000280,false,Rx,0,8,14,CB,66,63,CB,88,76,01,
18970291,00000280,false,Rx,0,8,04,0F,F8,00,00,00,00,00,
18973378,00000006,false,Rx,0,4,25,00,02,01,00,00,00,00,
18976722,00000288,false,Rx,0,5,06,10,FF,FF,FF,00,00,00,
18977722,00000288,false,Rx,0,4,08,00,00,00,00,00,00,00,
19006975,00000102,false,Rx,0,8,00,00,64,72,79,72,6F,13,
19007986,00000104,false,Rx,0,8,00,7F,00,19,00,24,0D,04,
19008983,0000010E,false,Rx,0,8,00,00,00,00,00,00,00,00,
19070238,00000280,false,Rx,0,8,14,CB,65,64,CB,88,6E,01,
19071603,00000280,false,Rx,0,8,04,0F,F8,00,00,00,00,00,
19076678,00000288,false,Rx,0,5,06,10,FF,FF,FF,00,00,00,
19077691,00000288,false,Rx,0,4,08,00,00,00,00,00,00,00,
19107091,00000102,false,Rx,0,8,00,00,64,72,79,72,6F,13,
19108147,00000104,false,Rx,0,8,00,7F,00,19,00,25,0E,04,
19109107,0000010E,false,Rx,0,8,00,00,00,00,00,00,00,00,
19170540,00000280,false,Rx,0,8,14,CB,65,64,CB,88,7A,01,
19171882,00000280,false,Rx,0,8,04,0F,F8,00,00,00,00,00,
19176698,00000288,false,Rx,0,5,06,10,FF,FF,FF,00,00,00,
19177695,00000288,false,Rx,0,4,08,00,00,00,00,00,00,00,
19207061,00000102,false,Rx,0,8,00,00,64,72,79,72,6F,13,
19208061,00000104,false,Rx,0,8,00,7F,00,19,00,26,0E,04,
19209067,0000010E,false,Rx,0,8,00,00,00,00,00,00,00,00,
19242521,00000380,false,Rx,0,7,02,00,14,00,00,00,3F,00,
19271845,00000280,false,Rx,0,8,14,CB,65,65,CB,88,46,01,
19272903,00000280,false,Rx,0,5,06,E1,06,12,1B,00,00,00,
19276697,00000288,false,Rx,0,5,06,10,FF,FF,FF,00,00,00,
19277680,00000288,false,Rx,0,4,08,00,00,00,00,00,00,00,
19306938,00000102,false,Rx,0,8,00,00,64,72,79,72,6F,13,
19307978,00000104,false,Rx,0,8,00,7F,00,19,00,27,0D,04,
19308965,0000010E,false,Rx,0,8,00,00,00,00,00,00,00,00,
19309964,0000008A,false,Rx,0,8,78,80,C8,80,9D,85,04,70,
19311689,0000009A,false,Rx,0,8,78,80,A0,80,9C,85,04,00,
19312701,000000A2,false,Rx,0,8,78,80,C7,80,9D,85,04,10,
19313719,000000C2,false,Rx,0,8,78,80,C8,80,9E,85,04,10,
19315444,000000DA,false,Rx,0,8,78,80,A0,80,9A,85,04,00,
19316457,00000092,false,Rx,0,8,00,80,C8,80,24,85,04,10,
19326166,000000BC,false,Rx,0,8,A0,18,EB,18,0E,63,02,21,
19342659,0000008C,false,Rx,0,8,CE,18,13,19,A3,63,02,23,
19344554,0000009C,false,Rx,0,8,A3,18,DC,18,EB,62,02,23,
19345590,000000A4,false,Rx,0,8,A0,18,E0,18,EC,62,02,21,
19346594,000000C4,false,Rx,0,8,77,18,EE,18,C1,62,02,23,
19347600,00000180,false,Rx,0,1,01,00,00,00,00,00,00,00,
19348590,000000DC,false,Rx,0,8,BC,18,1D,19,57,63,02,23,
19349610,00000094,false,Rx,0,8,9B,18,ED,18,FB,62,02,23,
19372107,00000280,false,Rx,0,8,14,CB,65,65,CB,88,46,01,
19373483,00000280,false,Rx,0,8,04,0F,F8,00,00,00,00,00,
19376696,00000288,false,Rx,0,5,06,10,FF,FF,FF,00,00,00,
19377686,00000288,false,Rx,0,4,08,00,00,00,00,00,00,00,
19406031,000000AA,false,Rx,0,8,78,80,A0,80,9C,85,04,00,
19406994,00000102,false,Rx,0,8,00,00,64,72,79,72,6F,13,
19408029,00000104,false,Rx,0,8,00,7F,00,19,00,28,0D,04,
19409015,000000CA,false,Rx,0,8,78,80,C8,80,9F,85,04,10,
19409990,0000010E,false,Rx,0,8,00,00,00,00,00,00,00,00,
19414711,000000D2,false,Rx,0,8,78,80,C8,80,9C,85,04,20,
19423794,000000BA,false,Rx,0,8,78,80,A0,80,9D,85,04,00,
19438892,000000AC,false,Rx,0,8,93,18,E4,18,D4,62,02,23,
19441518,000000CC,false,Rx,0,8,B4,18,EC,18,55,63,02,20,
19447608,000000D4,false,Rx,0,8,8E,18,ED,18,0B,63,02,23,
19473478,00000280,false,Rx,0,8,14,CB,65,65,CB,88,42,01,
19474809,00000280,false,Rx,0,8,04,0F,F8,00,00,00,00,00,
19476708,00000288,false,Rx,0,5,06,10,FF,FF,FF,00,00,00,
19477990,00000288,false,Rx,0,8,04,00,57,1B,64,C7,06,00,
19478884,00000288,false,Rx,0,7,04,01,28,0E,BE,A7,17,00,
19479884,00000288,false,Rx,0,8,04,02,13,D0,7C,F8,14,00,
19480874,00000288,false,Rx,0,7,04,03,0A,4A,0A,CE,46,00,
19481877,00000288,false,Rx,0,4,08,00,00,00,00,00,00,00,
19502796,000000B2,false,Rx,0,8,78,80,A0,80,9E,85,04,00,
19506980,00000102,false,Rx,0,8,00,00,64,72,7A,72,6F,13,
19507970,00000104,false,Rx,0,8,00,7F,00,19,00,29,0D,04,
19508984,0000010E,false,Rx,0,8,00,00,00,00,00,00,00,00,
19535609,000000B4,false,Rx,0,8,8C,18,E9,18,AC,62,02,20,
19573699,00000280,false,Rx,0,8,14,CB,65,65,CB,88,52,01,
19575110,00000280,false,Rx,0,8,04,0F,F8,00,00,00,00,00,
19576679,00000288,false,Rx,0,5,06,10,FF,FF,FF,00,00,00,
19577696,00000288,false,Rx,0,4,08,00,00,00,00,00,00,00,
19607109,00000102,false,Rx,0,8,00,00,64,72,79,72,6F,13,
19608127,00000104,false,Rx,0,8,00,7F,00,19,00,2A,0D,04,
19609123,0000010E,false,Rx,0,8,00,00,00,00,00,00,00,00,
19675044,00000280,false,Rx,0,8,14,CB,65,65,CB,88,52,01,
19676084,00000280,false,Rx,0,5,10,64,65,31,03,00,00,00,
19677278,00000288,false,Rx,0,5,06,10,FF,FF,FF,00,00,00,
19678330,00000288,false,Rx,0,4,08,00,00,00,00,00,00,00,
19706977,00000102,false,Rx,0,8,00,00,64,72,79,72,6F,13,
19708190,00000104,false,Rx,0,8,00,7F,00,19,00,2B,0E,04,
19709166,0000010E,false,Rx,0,8,00,00,00,00,00,00,00,00,
19759699,0000010A,false,Rx,0,5,00,00,64,C0,00,00,00,00,
19760659,0000010C,false,Rx,0,3,00,00,00,00,00,00,00,00,
19775312,00000280,false,Rx,0,8,14,CB,65,65,CB,88,52,01,
19776680,00000280,false,Rx,0,8,04,0F,F8,00,00,00,00,00,
19777678,00000288,false,Rx,0,5,06,10,FF,FF,FF,00,00,00,
19778681,00000288,false,Rx,0,4,08,00,00,00,00,00,00,00,
19807056,00000102,false,Rx,0,8,00,00,64,72,79,72,6F,13,
19808065,00000104,false,Rx,0,8,00,7F,00,19,00,2C,0D,04,
19809074,0000010E,false,Rx,0,8,00,00,00,00,00,00,00,00,
19812774,000000A2,false,Rx,0,8,78,80,A0,80,9D,85,04,00,
19813766,000000C2,false,Rx,0,8,78,80,C8,80,9E,85,04,20,
19815442,000000DA,false,Rx,0,8,78,80,C7,80,9A,85,04,70,
19816471,00000092,false,Rx,0,8,00,80,C8,80,24,85,04,10,
19842369,0000008C,false,Rx,0,8,CD,18,16,19,9B,63,02,20,
19844215,0000009C,false,Rx,0,8,A2,18,DA,18,EB,62,02,23,
19845243,00000380,false,Rx,0,6,09,74,19,29,1B,02,00,00,
19846233,000000A4,false,Rx,0,8,9F,18,DF,18,ED,62,02,21,
19847273,000000C4,false,Rx,0,8,7A,18,ED,18,CA,62,02,23,
19848304,000000DC,false,Rx,0,8,BC,18,1C,19,5A,63,02,23,
19849346,00000094,false,Rx,0,8,9C,18,ED,18,FD,62,02,23,
19876618,00000280,false,Rx,0,8,14,CB,65,65,CB,88,52,01,
19877647,00000288,false,Rx,0,5,06,10,FF,FF,FF,00,00,00,
19878639,00000280,false,Rx,0,8,04,0F,F8,00,00,00,00,00,
19879639,00000288,false,Rx,0,4,08,00,00,00,00,00,00,00,
19890957,000000BA,false,Rx,0,8,78,80,A0,80,9D,85,04,00,
19905574,000000B2,false,Rx,0,8,78,80,A0,80,9E,85,04,00,
19906571,00000328,false,Rx,0,8,20,00,A0,80,9F,80,A0,80,
19907765,00000102,false,Rx,0,8,00,00,64,72,79,72,6F,13,
19908617,00000104,false,Rx,0,8,00,7F,00,19,00,2D,0E,04,
19909614,000000CA,false,Rx,0,8,78,80,C8,80,9F,85,04,20,
19910605,0000010E,false,Rx,0,8,00,00,00,00,00,00,00,00,
19911611,00000328,false,Rx,0,8,20,01,A0,80,9F,80,9F,80,
19912615,0000032A,false,Rx,0,8,20,02,A0,80,A0,80,9F,80,
19914755,000000D2,false,Rx,0,8,78,80,C7,80,9C,85,04,50,
19923801,000000BC,false,Rx,0,8,A1,18,EC,18,13,63,02,21,
19938497,000000B4,false,Rx,0,8,8C,18,EA,18,AE,62,02,20,
19939968,0000008A,false,Rx,0,8,78,80,C8,80,9D,85,04,00,
19941539,000000CC,false,Rx,0,8,B2,18,ED,18,54,63,02,20,
19942556,0000009A,false,Rx,0,8,78,80,A0,80,9C,85,04,00,
19944883,00000180,false,Rx,0,1,01,00,00,00,00,00,00,00,
19947623,000000D4,false,Rx,0,8,8E,18,EC,18,08,63,02,23,
19976711,00000288,false,Rx,0,5,06,10,FF,FF,FF,00,00,00,
19977682,00000280,false,Rx,0,8,14,CB,65,65,CB,88,52,01,
19978737,00000288,false,Rx,0,4,08,00,00,00,00,00,00,00,
19979733,00000280,false,Rx,0,8,04,0F,F8,00,00,00,00,00,
20007091,00000102,false,Rx,0,8,00,00,64,72,7A,72,6F,13,
20008079,00000104,false,Rx,0,8,00,7F,00,19,00,2E,0E,04,
20009097,0000010E,false,Rx,0,8,00,00,00,00,00,00,00,00,
20010809,000000AA,false,Rx,0,8,78,80,A0,80,9C,85,04,00,
20043651,000000AC,false,Rx,0,8,94,18,E3,18,DB,62,02,23,
20076686,00000288,false,Rx,0,5,06,10,FF,FF,FF,00,00,00,
20077706,00000288,false,Rx,0,4,08,00,00,00,00,00,00,00,
20078695,00000280,false,Rx,0,8,14,CB,65,65,CB,88,52,01,
20079701,00000280,false,Rx,0,8,04,0F,F8,00,00,00,00,00,
20080705,00000006,false,Rx,0,4,25,00,02,01,00,00,00,00,
20107035,00000102,false,Rx,0,8,00,00,64,72,79,72,6F,13,
20108005,00000104,false,Rx,0,8,00,7F,00,19,00,2F,0D,04,
20109039,0000010E,false,Rx,0,8,00,00,00,00,00,00,00,00,
20176800,00000288,false,Rx,0,5,06,10,FF,FF,FF,00,00,00,
20177689,00000288,false,Rx,0,4,08,00,00,00,00,00,00,00,
20178700,00000280,false,Rx,0,8,14,CB,65,65,CB,88,52,01,
20179866,00000280,false,Rx,0,8,04,0F,F8,00,00,00,00,00,
20206984,00000102,false,Rx,0,8,00,00,64,72,79,72,6F,13,
20207981,00000104,false,Rx,0,8,00,7F,00,19,00,20,0D,04,
20208983,0000010E,false,Rx,0,8,00,00,00,00,00,00,00,00,
20245647,00000380,false,Rx,0,7,02,00,14,00,00,00,43,00,
20276710,00000288,false,Rx,0,5,06,FF,FE,FF,FF,00,00,00,
20277698,00000288,false,Rx,0,4,08,00,00,00,00,00,00,00,
20279764,00000280,false,Rx,0,8,14,CB,65,65,CB,88,52,01,
20280867,00000280,false,Rx,0,5,06,E1,06,12,1B,00,00,00,
20293696,000000BA,false,Rx,0,8,78,80,A0,80,9D,85,04,00,
20307041,00000102,false,Rx,0,8,00,00,64,72,79,72,6F,13,
20308061,00000104,false,Rx,0,8,00,7F,00,19,00,21,0E,04,
20309061,0000010E,false,Rx,0,8,00,00,00,00,00,00,00,00,
20312703,000000A2,false,Rx,0,8,78,80,C8,80,9D,85,04,40,
20313730,000000C2,false,Rx,0,8,78,80,C8,80,9E,85,04,20,
20316185,00000092,false,Rx,0,8,00,80,C8,80,24,85,04,10,
20326583,000000BC,false,Rx,0,8,A0,18,EC,18,12,63,02,21,
20345586,000000A4,false,Rx,0,8,9E,18,DF,18,EA,62,02,21,
20346583,000000C4,false,Rx,0,8,7A,18,F0,18,CA,62,02,23,
20347997,000000DC,false,Rx,0,8,BD,18,1D,19,5A,63,02,23,
20349041,00000094,false,Rx,0,8,9B,18,EC,18,F8,62,02,23,
20376628,00000288,false,Rx,0,5,06,10,FF,FF,FF,00,00,00,
20377707,00000288,false,Rx,0,4,08,00,00,00,00,00,00,00,
20380077,00000280,false,Rx,0,8,14,CB,65,65,CB,88,52,01,
20381397,00000280,false,Rx,0,8,04,0F,F8,00,00,00,00,00,
20405584,000000B2,false,Rx,0,8,78,80,A0,80,9E,85,04,00,
20406582,000000AA,false,Rx,0,8,78,80,A0,80,9C,85,04,00,
20407604,0000008A,false,Rx,0,8,78,80,A0,80,9D,85,04,00,
20408606,00000102,false,Rx,0,8,00,00,64,72,79,72,6F,13,
20409600,0000009A,false,Rx,0,8,78,80,A0,80,9C,85,04,00,
20410715,000000CA,false,Rx,0,8,78,80,C8,80,9F,85,04,20,
20411624,00000104,false,Rx,0,8,00,7F,00,19,00,22,0E,04,
20412626,0000010E,false,Rx,0,8,00,00,00,00,00,00,00,00,
20414745,000000D2,false,Rx,0,8,78,80,C8,80,9C,85,04,10,
20438415,000000B4,false,Rx,0,8,8C,18,EA,18,AE,62,02,20,
20439449,000000AC,false,Rx,0,8,8C,18,E2,18,D4,62,02,23,
20440471,0000008C,false,Rx,0,8,CF,18,17,19,9D,63,02,20,
20441542,000000CC,false,Rx,0,8,B1,18,ED,18,56,63,02,20,
20442514,0000009C,false,Rx,0,8,A2,18,DD,18,EB,62,02,23,
20445616,000000DA,false,Rx,0,8,78,80,A0,80,9A,85,04,00,
20447639,000000D4,false,Rx,0,8,97,18,ED,18,0D,63,02,23,
20450214,00000180,false,Rx,0,1,01,00,00,00,00,00,00,00,
20476688,00000288,false,Rx,0,5,06,10,FF,FF,FF,00,00,00,
20477878,00000288,false,Rx,0,8,04,00,58,1B,64,C7,06,00,
20479004,00000288,false,Rx,0,7,04,01,28,0E,BE,A7,17,00,
20480006,00000288,false,Rx,0,8,04,02,3C,D1,7C,F8,14,00,
20480897,00000288,false,Rx,0,7,04,03,11,4E,0A,CE,46,00,
20481900,00000280,false,Rx,0,8,14,CB,65,65,CB,88,52,01,
20482897,00000288,false,Rx,0,4,08,00,00,00,00,00,00,00,
20483925,00000280,false,Rx,0,8,04,0F,F8,00,00,00,00,00,
20506951,00000102,false,Rx,0,8,00,00,64,72,7A,72,6F,13,
20507964,00000104,false,Rx,0,8,00,7F,00,19,00,23,0D,04,
20508958,0000010E,false,Rx,0,8,00,00,00,00,00,00,00,00,
20576700,00000288,false,Rx,0,5,06,10,FF,FF,FF,00,00,00,
20577675,00000288,false,Rx,0,4,08,00,00,00,00,00,00,00,
20581657,00000280,false,Rx,0,8,14,CB,65,65,CB,88,52,01,
20583046,00000280,false,Rx,0,8,04,0F,F8,00,00,00,00,00,
20607044,00000102,false,Rx,0,8,00,00,64,72,79,72,6F,13,
20608030,00000104,false,Rx,0,8,00,7F,00,19,00,24,0D,04,
20609061,0000010E,false,Rx,0,8,00,00,00,00,00,00,00,00,
20676706,00000288,false,Rx,0,5,06,10,FF,FF,FF,00,00,00,
20677710,00000288,false,Rx,0,4,08,00,00,00,00,00,00,00,
20683051,00000280,false,Rx,0,8,14,CB,65,65,CB,88,52,01,
20684101,00000280,false,Rx,0,5,10,64,65,31,03,00,00,00,
20707091,00000102,false,Rx,0,8,00,00,64,72,7A,72,6F,13,
20708096,00000104,false,Rx,0,8,00,7F,00,19,00,25,0D,04,
20709063,0000010E,false,Rx,0,8,00,00,00,00,00,00,00,00,
20768918,0000010A,false,Rx,0,5,00,00,64,C0,00,00,00,00,
20769900,0000010C,false,Rx,0,3,00,00,00,00,00,00,00,00,
20776668,00000288,false,Rx,0,5,06,10,FF,FF,FF,00,00,00,
20777693,00000288,false,Rx,0,4,08,00,00,00,00,00,00,00,
20783280,00000280,false,Rx,0,8,14,CB,65,65,CB,88,52,01,
20784659,00000280,false,Rx,0,8,04,0F,F8,00,00,00,00,00,
20793734,000000BA,false,Rx,0,8,78,80,A0,80,9D,85,04,00,
20806835,00000102,false,Rx,0,8,00,00,64,72,79,72,6F,13,
20807829,00000104,false,Rx,0,8,00,7F,00,19,00,26,0D,04,
20808858,0000010E,false,Rx,0,8,00,00,00,00,00,00,00,00,
20809869,0000008A,false,Rx,0,8,78,80,A0,80,9D,85,04,00,
20812755,000000A2,false,Rx,0,8,78,80,C8,80,9D,85,04,00,
20813787,000000C2,false,Rx,0,8,78,80,C8,80,9E,85,04,10,
20816214,00000092,false,Rx,0,8,00,80,C8,80,24,85,04,10,
20826589,000000BC,false,Rx,0,8,A2,18,EB,18,0E,63,02,21,
20842761,0000008C,false,Rx,0,8,D8,18,0E,19,98,63,02,20,
20845609,000000A4,false,Rx,0,8,9F,18,DF,18,EA,62,02,21,
20846612,000000C4,false,Rx,0,8,7B,18,EF,18,C7,62,02,23,
20847602,00000380,false,Rx,0,6,09,74,19,29,1B,02,00,00,
20849067,00000094,false,Rx,0,8,9D,18,EE,18,FD,62,02,23,
20850069,000000D4,false,Rx,0,8,92,18,ED,18,0B,63,02,23,
20876672,00000288,false,Rx,0,5,06,10,FF,FF,FF,00,00,00,
20877695,00000288,false,Rx,0,4,08,00,00,00,00,00,00,00,
20884641,00000280,false,Rx,0,8,14,CB,65,65,CB,88,52,01,
20885987,00000280,false,Rx,0,8,04,0F,F8,00,00,00,00,00,
20905611,000000B2,false,Rx,0,8,78,80,A0,80,9E,85,04,00,
20906627,000000AA,false,Rx,0,8,78,80,A0,80,9C,85,04,00,
20907626,00000102,false,Rx,0,8,00,00,64,72,79,72,6F,13,
20908615,00000104,false,Rx,0,8,00,7F,00,19,00,27,0D,04,
20909623,0000009A,false,Rx,0,8,78,80,A0,80,9C,85,04,00,
20910792,000000CA,false,Rx,0,8,78,80,C8,80,9F,85,04,50,
20911665,0000010E,false,Rx,0,8,00,00,00,00,00,00,00,00,
20912741,000000DA,false,Rx,0,8,78,80,A0,80,9A,85,04,00,
20938487,000000B4,false,Rx,0,8,8C,18,EA,18,AE,62,02,20,
20939472,000000AC,false,Rx,0,8,92,18,E7,18,D8,62,02,23,
20941532,000000CC,false,Rx,0,8,B1,18,EE,18,57,63,02,20,
20942555,0000009C,false,Rx,0,8,A3,18,DA,18,EA,62,02,21,
20945624,000000DC,false,Rx,0,8,BF,18,1D,19,5F,63,02,21,
20947644,000000D2,false,Rx,0,8,78,80,C7,80,9C,85,04,50,
20951558,00000180,false,Rx,0,1,01,00,00,00,00,00,00,00,
20976828,00000288,false,Rx,0,5,06,10,FF,FF,FF,00,00,00,
20977717,00000288,false,Rx,0,4,08,00,00,00,00,00,00,00,
20984990,00000280,false,Rx,0,8,14,CB,65,65,CB,88,52,01,
20986247,00000280,false,Rx,0,8,04,0F,F8,00,00,00,00,00,
21006990,00000102,false,Rx,0,8,00,00,64,72,79,72,6F,13,
21007948,00000104,false,Rx,0,8,00,7F,00,19,00,28,0E,04,
21008960,0000010E,false,Rx,0,8,00,00,00,00,00,00,00,00,
21076672,00000288,false,Rx,0,5,06,10,FF,FF,FF,00,00,00,
21077682,00000288,false,Rx,0,4,08,00,00,00,00,00,00,00,
21086159,00000280,false,Rx,0,8,14,CB,65,65,CB,88,52,01,
21087571,00000280,false,Rx,0,8,04,0F,F8,00,00,00,00,00,
21088779,00000006,false,Rx,0,4,25,00,02,01,00,00,00,00,
21107085,00000102,false,Rx,0,8,00,00,64,73,7A,72,6F,13,
21108070,00000104,false,Rx,0,8,00,7F,00,19,00,29,0E,04,
21109089,0000010E,false,Rx,0,8,00,00,00,00,00,00,00,00,
21176697,00000288,false,Rx,0,5,06,10,FF,FF,FF,00,00,00,
21177695,00000288,false,Rx,0,4,08,00,00,00,00,00,00,00,
21186463,00000280,false,Rx,0,8,14,CB,65,65,CB,88,52,01,
21187867,00000280,false,Rx,0,8,04,0F,F8,00,00,00,00,00,
21206838,00000102,false,Rx,0,8,00,00,64,72,79,72,6F,13,
21207790,00000104,false,Rx,0,8,00,7F,00,19,00,2A,0E,04,
21208845,0000010E,false,Rx,0,8,00,00,00,00,00,00,00,00,
21248703,00000380,false,Rx,0,7,02,00,14,00,00,00,47,00,
21276676,00000288,false,Rx,0,5,06,10,FF,FF,FF,00,00,00,
21277683,00000288,false,Rx,0,4,08,00,00,00,00,00,00,00,
21280276,00000200,false,Rx,0,1,20,00,00,00,00,00,00,00,
21281279,00000200,false,Rx,0,1,26,00,00,00,00,00,00,00,
21282293,00000280,false,Rx,0,7,20,8C,91,03,73,6E,FC,00,
21283270,00000200,false,Rx,0,8,21,00,8C,91,03,73,6E,FC,
21283272,00000280,false,Rx,0,4,26,85,8F,03,00,00,00,00,
21287268,00000280,false,Rx,0,8,14,CB,65,65,CB,88,52,01,
21288311,00000280,false,Rx,0,5,06,E1,06,12,1B,00,00,00,
21306981,00000102,false,Rx,0,8,00,00,64,72,7A,72,6F,13,
21307992,00000104,false,Rx,0,8,00,7F,00,19,00,2B,0E,04,
21309002,0000010E,false,Rx,0,8,00,00,00,00,00,00,00,00,
21310007,0000008A,false,Rx,0,8,78,80,A0,80,9D,85,04,00,
21311750,0000009A,false,Rx,0,8,78,80,A0,80,9C,85,04,00,
21315531,000000DA,false,Rx,0,8,78,80,A0,80,9A,85,04,00,
21316538,00000092,false,Rx,0,8,00,80,C8,80,FC,84,04,10,
21319879,00000006,false,Rx,0,2,0E,00,00,00,00,00,00,00,
21320889,0000032A,false,Rx,0,4,0E,00,00,82,00,00,00,00,
21321896,00000332,false,Rx,0,4,0E,00,00,82,00,00,00,00,
21342707,0000008C,false,Rx,0,8,D0,18,16,19,A7,63,02,23,
21343714,0000030A,false,Rx,0,4,0E,00,00,82,00,00,00,00,
21344738,0000009C,false,Rx,0,8,A0,18,DC,18,E8,62,02,23,
21345745,0000031A,false,Rx,0,4,0E,00,00,82,00,00,00,00,
21348327,000000DC,false,Rx,0,8,BD,18,1C,19,5B,63,02,21,
21349375,00000094,false,Rx,0,8,9B,18,EB,18,FA,62,02,23,
21350412,00000312,false,Rx,0,4,0E,00,00,82,00,00,00,00,
21351409,0000035A,false,Rx,0,4,0E,00,00,82,00,00,00,00,
21376698,00000288,false,Rx,0,5,06,10,FF,FF,FF,00,00,00,
21377687,00000288,false,Rx,0,4,08,00,00,00,00,00,00,00,
21388614,00000280,false,Rx,0,8,14,CB,65,65,CB,88,52,01,
21389977,00000280,false,Rx,0,8,04,0F,F8,00,00,00,00,00,
21391050,000000BA,false,Rx,0,8,78,80,A0,80,9D,85,04,00,
21406299,000000AA,false,Rx,0,8,78,80,A0,80,9C,85,04,00,
21407291,00000102,false,Rx,0,8,00,00,64,73,7A,72,6F,13,
21408088,00000104,false,Rx,0,8,00,7F,00,19,00,2C,0E,04,
21409091,000000CA,false,Rx,0,8,78,80,C8,80,9F,85,04,10,
21410088,0000010E,false,Rx,0,8,00,00,00,00,00,00,00,00,
21411088,000000A2,false,Rx,0,8,78,80,C8,80,9D,85,04,40,
21412079,000000C2,false,Rx,0,8,78,80,C8,80,9E,85,04,20,
21414804,000000D2,false,Rx,0,8,78,80,C7,80,9C,85,04,40,
21423973,000000BC,false,Rx,0,8,A1,18,ED,18,10,63,02,21,
21424950,0000033A,false,Rx,0,4,0E,00,00,82,00,00,00,00,
21438202,000000B4,false,Rx,0,8,8C,18,EA,18,AE,62,02,20,
21439145,000000AC,false,Rx,0,8,96,18,E3,18,D9,62,02,23,
21441515,000000CC,false,Rx,0,8,B6,18,ED,18,58,63,02,20,
21442539,0000034A,false,Rx,0,4,0E,00,00,82,00,00,00,00,
21443531,000000A4,false,Rx,0,8,9F,18,DF,18,EE,62,02,21,
21444634,000000C4,false,Rx,0,8,78,18,EE,18,C1,62,02,23,
21445656,00000322,false,Rx,0,4,0E,00,00,82,00,00,00,00,
21445657,00000342,false,Rx,0,4,0E,00,00,82,00,00,00,00,
21447640,000000D4,false,Rx,0,8,8F,18,EA,18,09,63,02,23,
21448670,00000352,false,Rx,0,4,0E,00,00,82,00,00,00,00,
21476721,00000288,false,Rx,0,5,06,10,FF,FF,FF,00,00,00,
21477991,00000288,false,Rx,0,8,04,00,59,1B,64,C7,06,00,
21478999,00000288,false,Rx,0,7,04,01,28,0E,BE,A7,17,00,
21479890,00000288,false,Rx,0,8,04,02,67,D2,7C,F8,14,00,
21480889,00000288,false,Rx,0,7,04,03,1E,52,0A,CE,46,00,
21481909,00000288,false,Rx,0,4,08,00,00,00,00,00,00,00,
21488871,00000280,false,Rx,0,8,14,CB,65,65,CB,88,52,01,
21490247,00000280,false,Rx,0,8,04,0F,F8,00,00,00,00,00,
21506899,00000102,false,Rx,0,8,00,00,64,72,7A,72,6F,13,
21507973,00000104,false,Rx,0,8,00,7F,00,18,00,2D,0D,04,
21508948,0000010E,false,Rx,0,8,00,00,00,00,00,00,00,00,
21535683,000000B2,false,Rx,0,8,78,80,A0,80,9E,85,04,00,
21540954,00000180,false,Rx,0,1,01,00,00,00,00,00,00,00,
21576710,00000288,false,Rx,0,5,06,10,FF,FF,FF,00,00,00,
21577682,00000288,false,Rx,0,4,08,00,00,00,00,00,00,00,
21590206,00000280,false,Rx,0,8,14,CB,65,65,CB,88,52,01,
21591510,00000280,false,Rx,0,8,04,0F,F8,00,00,00,00,00,
21607060,00000102,false,Rx,0,8,00,00,64,72,79,72,6F,13,
21608038,00000104,false,Rx,0,8,00,7F,00,18,00,2E,0E,04,
21609054,0000010E,false,Rx,0,8,00,00,00,00,00,00,00,00,
21676688,00000288,false,Rx,0,5,06,10,FF,FF,FF,00,00,00,
21677697,00000288,false,Rx,0,4,08,00,00,00,00,00,00,00,
21690495,00000280,false,Rx,0,8,14,CB,65,65,CB,88,52,01,
21691536,00000280,false,Rx,0,5,10,64,65,31,03,00,00,00,
21707095,00000102,false,Rx,0,8,00,00,64,72,7A,72,6F,13,
21708049,00000104,false,Rx,0,8,00,7F,00,19,00,2F,0E,04,
21709067,0000010E,false,Rx,0,8,00,00,00,00,00,00,00,00,
21776690,00000288,false,Rx,0,5,06,10,FF,FF,FF,00,00,00,
21777684,00000288,false,Rx,0,4,08,00,00,00,00,00,00,00,
21783272,0000010A,false,Rx,0,5,00,00,64,C0,00,00,00,00,
21784284,0000010C,false,Rx,0,3,00,00,00,00,00,00,00,00,
21791797,00000280,false,Rx,0,8,14,CB,65,65,CB,88,52,01,
21793174,00000280,false,Rx,0,8,04,0F,F8,00,00,00,00,00,
21806818,00000102,false,Rx,0,8,00,00,64,72,7A,72,6F,13,
21807820,00000104,false,Rx,0,8,00,7F,00,19,00,20,0D,04,
21808816,0000010E,false,Rx,0,8,00,00,00,00,00,00,00,00,
21809915,0000008A,false,Rx,0,8,78,80,A0,80,9D,85,04,00,
21811775,0000009A,false,Rx,0,8,78,80,A0,80,9C,85,04,00,
21815495,000000DA,false,Rx,0,8,78,80,A0,80,9A,85,04,00,
21842744,0000008C,false,Rx,0,8,D1,18,22,19,B0,63,02,20,
21844602,0000009C,false,Rx,0,8,A3,18,DE,18,E9,62,02,21,
21848394,000000DC,false,Rx,0,8,BC,18,19,19,58,63,02,21,
21850357,00000380,false,Rx,0,6,09,74,19,29,1B,02,00,00,
21876692,00000288,false,Rx,0,5,06,10,FF,FF,FF,00,00,00,
21877684,00000288,false,Rx,0,4,08,00,00,00,00,00,00,00,
21891017,000000BA,false,Rx,0,8,78,80,A0,80,9D,85,04,00,
21892058,00000280,false,Rx,0,8,14,CB,65,65,CB,88,52,01,
21893436,00000280,false,Rx,0,8,04,0F,F8,00,00,00,00,00,
21905617,000000B2,false,Rx,0,8,78,80,A0,80,9E,85,04,00,
21906614,000000AA,false,Rx,0,8,78,80,A0,80,9C,85,04,00,
21907641,00000102,false,Rx,0,8,00,00,64,72,7A,72,6F,13,
21908654,00000104,false,Rx,0,8,00,7F,00,19,00,21,0E,04,
21909666,000000CA,false,Rx,0,8,78,80,C8,80,9F,85,04,20,
21910657,000000A2,false,Rx,0,8,78,80,C8,80,9D,85,04,30,
21911659,000000C2,false,Rx,0,8,78,80,C8,80,9E,85,04,00,
21912654,0000010E,false,Rx,0,8,00,00,00,00,00,00,00,00,
21913695,00000092,false,Rx,0,8,00,80,C8,80,24,85,04,10,
21914847,000000D2,false,Rx,0,8,78,80,A0,80,9C,85,04,00,
21923876,000000BC,false,Rx,0,8,A2,18,EC,18,11,63,02,21,
21938467,000000B4,false,Rx,0,8,8C,18,E9,18,AF,62,02,20,
21939479,000000AC,false,Rx,0,8,8F,18,E2,18,D2,62,02,23,
21941593,000000CC,false,Rx,0,8,B5,18,ED,18,54,63,02,20,
21942912,000000A4,false,Rx,0,8,9E,18,DE,18,EC,62,02,21,
21943914,000000C4,false,Rx,0,8,78,18,EE,18,C4,62,02,23,
21946331,00000094,false,Rx,0,8,9D,18,ED,18,FD,62,02,23,
21947715,000000D4,false,Rx,0,8,94,18,EE,18,0C,63,02,23,
21954772,00000180,false,Rx,0,1,01,00,00,00,00,00,00,00,
21976710,00000288,false,Rx,0,5,06,10,FF,FF,FF,00,00,00,
21977678,00000288,false,Rx,0,4,08,00,00,00,00,00,00,00,
21993394,00000280,false,Rx,0,8,14,CB,65,65,CB,88,52,01,
21994746,00000280,false,Rx,0,8,04,0F,F8,00,00,00,00,00,
22006984,00000102,false,Rx,0,8,00,00,64,72,79,72,6F,13,
22007978,00000104,false,Rx,0,8,00,7F,00,19,00,22,0D,04,
22008997,0000010E,false,Rx,0,8,00,00,00,00,00,00,00,00,
22076646,00000288,false,Rx,0,5,06,10,FF,FF,FF,00,00,00,
22077674,00000288,false,Rx,0,4,08,00,00,00,00,00,00,00,
22093635,00000280,false,Rx,0,8,14,CB,65,65,CB,88,52,01,
22095000,00000280,false,Rx,0,8,04,0F,F8,00,00,00,00,00,
22107068,00000102,false,Rx,0,8,00,00,64,72,7A,72,6F,13,
22108050,00000104,false,Rx,0,8,00,7F,00,19,00,23,0E,04,
22109087,0000010E,false,Rx,0,8,00,00,00,00,00,00,00,00,
22176689,00000288,false,Rx,0,5,06,10,FF,FF,FF,00,00,00,
22177699,00000288,false,Rx,0,4,08,00,00,00,00,00,00,00,
22195003,00000280,false,Rx,0,8,14,CB,65,65,CB,88,52,01,
22196346,00000280,false,Rx,0,8,04,0F,F8,00,00,00,00,00,
22203761,00000006,false,Rx,0,4,25,00,02,01,00,00,00,00,
22206933,00000102,false,Rx,0,8,00,00,64,72,79,72,6F,13,
22207948,00000104,false,Rx,0,8,00,7F,00,19,00,24,0E,04,
22208951,0000010E,false,Rx,0,8,00,00,00,00,00,00,00,00,
22251758,00000380,false,Rx,0,7,02,00,14,00,00,00,4B,00,
22276660,00000288,false,Rx,0,5,06,10,FF,FF,FF,00,00,00,
22277681,00000288,false,Rx,0,4,08,00,00,00,00,00,00,00,
22293803,000000BA,false,Rx,0,8,78,80,A0,80,9D,85,04,00,
22295230,00000280,false,Rx,0,8,14,CB,65,65,CB,88,52,01,
22296300,00000280,false,Rx,0,5,06,E1,06,12,1B,00,00,00,
22307001,00000102,false,Rx,0,8,00,00,64,72,7A,72,6F,13,
22307967,00000104,false,Rx,0,8,00,7F,00,19,00,25,0E,04,
22309010,0000010E,false,Rx,0,8,00,00,00,00,00,00,00,00,
22315525,000000DA,false,Rx,0,8,78,80,C7,80,9A,85,04,10,
22326660,000000BC,false,Rx,0,8,9F,18,EC,18,13,63,02,21,
22344283,0000009C,false,Rx,0,8,9F,18,DA,18,E7,62,02,23,
22345269,000000A4,false,Rx,0,8,9F,18,E0,18,EE,62,02,21,
22348439,000000DC,false,Rx,0,8,BE,18,1D,19,60,63,02,23,
22355232,00000006,false,Rx,0,3,1E,03,78,00,00,00,00,00,
22356235,0000032A,false,Rx,0,3,1E,03,78,00,00,00,00,00,
22357208,00000332,false,Rx,0,3,1E,03,78,00,00,00,00,00,
22376660,00000288,false,Rx,0,5,06,10,FF,FF,FF,00,00,00,
22377677,00000288,false,Rx,0,4,08,00,00,00,00,00,00,00,
22396563,00000280,false,Rx,0,8,14,CB,65,65,CB,88,52,01,
22397944,00000280,false,Rx,0,8,04,0F,F8,00,00,00,00,00,
22406069,000000AA,false,Rx,0,8,78,80,A0,80,9C,85,04,00,
22407105,00000102,false,Rx,0,8,00,00,64,72,7A,72,6F,13,
22408098,0000008A,false,Rx,0,8,78,80,C7,80,9D,85,04,50,
22409032,000000CA,false,Rx,0,8,78,80,C8,80,9F,85,04,20,
22410084,0000010E,false,Rx,0,8,00,00,00,00,00,00,00,00,
22411087,000000C2,false,Rx,0,8,78,80,C8,80,9E,85,04,20,
22412111,00000104,false,Rx,0,8,00,7F,00,19,00,26,0D,04,
22413439,00000092,false,Rx,0,8,00,80,C8,80,24,85,04,10,
22414829,000000D2,false,Rx,0,8,78,80,C8,80,9C,85,04,20,
22423773,0000033A,false,Rx,0,3,1E,03,78,00,00,00,00,00,
22438933,000000AC,false,Rx,0,8,94,18,E6,18,DD,62,02,23,
22440029,0000008C,false,Rx,0,8,CF,18,20,19,B4,63,02,20,
22441023,0000030A,false,Rx,0,3,1E,03,78,00,00,00,00,00,
22441993,000000CC,false,Rx,0,8,B4,18,EE,18,57,63,02,20,
22443048,0000009A,false,Rx,0,8,78,80,C7,80,9C,85,04,20,
22443981,000000A2,false,Rx,0,8,78,80,A0,80,9D,85,04,00,
22445063,000000C4,false,Rx,0,8,7B,18,EF,18,C9,62,02,23,
22445064,0000031A,false,Rx,0,3,1E,03,78,00,00,00,00,00,
22446060,00000322,false,Rx,0,3,1E,03,78,00,00,00,00,00,
22447078,00000094,false,Rx,0,8,9E,18,ED,18,FF,62,02,23,
22447079,00000312,false,Rx,0,3,1E,03,78,00,00,00,00,00,
22448075,000000D4,false,Rx,0,8,91,18,EE,18,08,63,02,23,
22449078,00000342,false,Rx,0,3,1E,03,78,00,00,00,00,00,
22450034,0000034A,false,Rx,0,3,1E,03,78,00,00,00,00,00,
22450035,00000352,false,Rx,0,3,1E,03,78,00,00,00,00,00,
22451300,0000035A,false,Rx,0,3,1E,03,78,00,00,00,00,00,
22476705,00000288,false,Rx,0,5,06,10,FF,FF,FF,00,00,00,
22477832,00000288,false,Rx,0,8,04,00,5A,1B,64,C7,06,00,
22478830,00000288,false,Rx,0,7,04,01,28,0E,BE,A7,17,00,
22479887,00000288,false,Rx,0,8,04,02,93,D3,7C,F8,14,00,
22480952,00000288,false,Rx,0,7,04,03,2E,56,0A,CE,46,00,
22481952,00000288,false,Rx,0,4,08,00,00,00,00,00,00,00,
22496859,00000280,false,Rx,0,8,14,CB,65,65,CB,88,52,01,
22498231,00000280,false,Rx,0,8,04,0F,F8,00,00,00,00,00,
22502820,000000B2,false,Rx,0,8,78,80,A0,80,9E,85,04,00,
22506997,00000102,false,Rx,0,8,00,00,64,72,7A,72,6F,13,
22507995,00000104,false,Rx,0,8,00,7F,00,19,00,27,0D,04,
22509016,0000010E,false,Rx,0,8,00,00,00,00,00,00,00,00,
22535681,000000B4,false,Rx,0,8,8C,18,EA,18,AE,62,02,20,
22576671,00000288,false,Rx,0,5,06,10,FF,FF,FF,00,00,00,
22577705,00000288,false,Rx,0,4,08,00,00,00,00,00,00,00,
22598171,00000280,false,Rx,0,8,14,CB,65,65,CB,88,52,01,
22599523,00000280,false,Rx,0,8,04,0F,F8,00,00,00,00,00,
