Time Stamp,ID,Extended,Dir,Bus,LEN,D1,D2,D3,D4,D5,D6,D7,D8
-1789523008463355,00000102,false,Rx,0,8,00,00,64,66,60,64,7B,00,
-1789523008462373,00000104,false,Rx,0,8,04,7F,00,7F,00,2E,10,00,
-1789523008461392,0000010E,false,Rx,0,8,00,00,00,00,00,00,00,00,
-1789523008457424,00000288,false,Rx,0,5,06,FF,FE,FF,FF,00,00,00,
-1789523008456272,00000288,false,Rx,0,8,04,00,23,BA,3D,96,0D,00,
-1789523008455376,00000288,false,Rx,0,7,04,01,19,5E,C3,F2,2E,00,
-1789523008454310,00000288,false,Rx,0,8,04,02,F9,02,2A,2F,0E,00,
-1789523008453371,00000288,false,Rx,0,7,04,03,E0,E3,71,15,2E,00,
-1789523008452560,00000288,false,Rx,0,4,08,00,00,00,00,00,00,00,
-1789523008443216,00000280,false,Rx,0,8,14,BB,5C,5D,01,89,9C,00,
-1789523008442107,00000280,false,Rx,0,8,04,4E,F8,00,00,00,00,00,
-1789523008363516,00000102,false,Rx,0,8,00,00,64,66,60,64,7B,00,
-1789523008362535,00000104,false,Rx,0,8,04,7F,00,7F,00,2F,10,00,
-1789523008361554,0000010E,false,Rx,0,8,00,00,00,00,00,00,00,00,
-1789523008357458,00000288,false,Rx,0,5,06,FF,FE,FF,FF,00,00,00,
-1789523008356562,00000288,false,Rx,0,4,08,00,00,00,00,00,00,00,
-1789523008342439,00000280,false,Rx,0,8,14,BB,5C,5D,01,89,9C,00,
-1789523008341287,00000280,false,Rx,0,8,04,4E,F8,00,00,00,00,00,
-1789523008340349,00000308,false,Rx,0,8,20,00,45,7D,45,7D,3C,7D,
-1789523008339410,00000308,false,Rx,0,8,20,01,1F,7D,37,7D,4A,7D,
-1789523008338471,000000B2,false,Rx,0,8,37,7D,4A,7D,47,67,04,02,
-1789523008337533,0000030A,false,Rx,0,8,20,02,45,7D,4A,7D,41,7D,
-1789523008336551,00000318,false,Rx,0,8,20,01,41,7D,45,7D,41,7D,
-1789523008335613,00000312,false,Rx,0,8,20,02,32,7D,32,7D,3C,7D,
-1789523008334674,00000310,false,Rx,0,8,20,01,3C,7D,3C,7D,32,7D,
-1789523008333735,00000310,false,Rx,0,8,20,00,3C,7D,41,7D,37,7D,
-1789523008332754,00000318,false,Rx,0,8,20,00,37,7D,41,7D,3C,7D,
-1789523008331816,0000031A,false,Rx,0,8,20,02,41,7D,4F,7D,37,7D,
-1789523008263307,00000102,false,Rx,0,8,00,00,64,66,60,63,7C,00,
-1789523008262325,00000104,false,Rx,0,8,04,7F,00,7F,00,20,10,00,
-1789523008261344,0000010E,false,Rx,0,8,00,00,00,00,00,00,00,00,
-1789523008257419,00000288,false,Rx,0,5,06,FF,FE,FF,FF,00,00,00,
-1789523008256523,00000288,false,Rx,0,4,08,00,00,00,00,00,00,00,
-1789523008241632,00000280,false,Rx,0,8,14,BB,5C,5D,01,89,9C,00,
-1789523008240480,00000280,false,Rx,0,8,04,4E,F8,00,00,00,00,00,
-1789523008166199,0000010A,false,Rx,0,5,00,00,64,00,00,00,00,00,
-1789523008165473,0000010C,false,Rx,0,3,00,00,00,00,00,00,00,00,
-1789523008163169,00000102,false,Rx,0,8,00,00,64,66,60,63,7C,00,
-1789523008162231,00000104,false,Rx,0,8,04,7F,00,7F,00,21,0F,00,
-1789523008161250,0000010E,false,Rx,0,8,00,00,00,00,00,00,00,00,
-1789523008157410,00000288,false,Rx,0,5,06,FF,FE,FF,FF,00,00,00,
-1789523008156514,00000288,false,Rx,0,4,08,00,00,00,00,00,00,00,
-1789523008140855,00000280,false,Rx,0,8,14,BB,5C,5D,01,88,9C,03,
-1789523008139789,00000280,false,Rx,0,8,04,4E,F8,00,00,00,00,00,
-1789523008058083,00000102,false,Rx,0,8,00,00,64,66,60,64,7B,00,
-1789523008057102,00000104,false,Rx,0,8,04,7F,00,7F,00,22,0F,00,
-1789523008056120,0000010E,false,Rx,0,8,00,00,00,00,00,00,00,00,
-1789523008055310,00000288,false,Rx,0,5,06,FF,FE,FF,FF,00,00,00,
-1789523008054499,00000288,false,Rx,0,4,08,00,00,00,00,00,00,00,
-1789523008040035,00000280,false,Rx,0,8,14,BB,5C,5D,01,88,9D,03,
-1789523008039267,00000280,false,Rx,0,5,06,22,07,C0,19,00,00,00,
-1789523008011705,00000380,false,Rx,0,6,09,35,00,00,1B,04,00,00,
-1789523007957434,00000288,false,Rx,0,5,06,FF,FE,FF,FF,00,00,00,
-1789523007956495,00000102,false,Rx,0,8,00,00,64,66,60,64,7B,00,
-1789523007955514,00000104,false,Rx,0,8,04,7F,00,7F,00,23,0F,00,
-1789523007954533,0000010E,false,Rx,0,8,00,00,00,00,00,00,00,00,
-1789523007953850,00000288,false,Rx,0,4,08,00,00,00,00,00,00,00,
-1789523007939216,00000280,false,Rx,0,8,14,BB,5C,5D,01,88,9C,03,
-1789523007938149,00000280,false,Rx,0,8,04,4E,F8,00,00,00,00,00,
-1789523007863398,00000102,false,Rx,0,8,00,00,64,66,60,64,7B,00,
-1789523007862417,00000104,false,Rx,0,8,04,7F,00,7F,00,24,10,00,
-1789523007861436,0000010E,false,Rx,0,8,00,00,00,00,00,00,00,00,
-1789523007857425,00000288,false,Rx,0,5,06,FF,FE,FF,FF,00,00,00,
-1789523007856529,00000288,false,Rx,0,4,08,00,00,00,00,00,00,00,
-1789523007838481,00000280,false,Rx,0,8,14,BB,5C,5D,01,88,9C,03,
-1789523007837329,00000280,false,Rx,0,8,04,4E,F8,00,00,00,00,00,
-1789523007790909,00000380,false,Rx,0,7,02,00,12,00,00,00,F4,00,
-1789523007763346,00000102,false,Rx,0,8,00,00,64,66,60,63,7B,00,
-1789523007762365,00000104,false,Rx,0,8,04,7F,00,7F,00,25,0F,00,
-1789523007761384,0000010E,false,Rx,0,8,00,00,00,00,00,00,00,00,
-1789523007757416,00000288,false,Rx,0,5,06,FF,FE,FF,FF,00,00,00,
-1789523007756520,00000288,false,Rx,0,4,08,00,00,00,00,00,00,00,
-1789523007737619,00000280,false,Rx,0,8,14,BB,5C,5D,01,88,9D,03,
-1789523007736552,00000280,false,Rx,0,8,04,4E,F8,00,00,00,00,00,
-1789523007675497,00000320,false,Rx,0,8,20,00,32,7D,37,7D,3C,7D,
-1789523007674516,00000320,false,Rx,0,8,20,01,41,7D,41,7D,41,7D,
-1789523007673577,000000B4,false,Rx,0,8,80,20,00,21,80,3B,02,03,
-1789523007672638,00000322,false,Rx,0,8,20,02,45,7D,45,7D,55,7C,
-1789523007671657,00000328,false,Rx,0,8,20,01,45,7D,4A,7D,41,7D,
-1789523007670719,00000330,false,Rx,0,8,20,00,4A,7D,45,7D,37,7D,
-1789523007669780,0000032A,false,Rx,0,8,20,02,3C,7D,41,7D,45,7D,
-1789523007668841,00000328,false,Rx,0,8,20,00,45,7D,37,7D,4F,7D,
-1789523007667903,00000330,false,Rx,0,8,20,01,3C,7D,41,7D,3C,7D,
-1789523007666964,00000332,false,Rx,0,8,20,02,45,7D,41,7D,41,7D,
-1789523007663380,00000102,false,Rx,0,8,00,00,64,66,60,64,7C,00,
-1789523007662399,00000104,false,Rx,0,8,04,7F,00,7F,00,26,10,00,
-1789523007661417,0000010E,false,Rx,0,8,00,00,00,00,00,00,00,00,
-1789523007657407,00000288,false,Rx,0,5,06,FF,FE,FF,FF,00,00,00,
-1789523007656511,00000288,false,Rx,0,4,08,00,00,00,00,00,00,00,
-1789523007636842,00000280,false,Rx,0,8,14,BB,5C,5D,01,89,9C,00,
-1789523007635690,00000280,false,Rx,0,8,04,4E,F8,00,00,00,00,00,
-1789523007632831,00000006,false,Rx,0,4,25,00,00,00,00,00,00,00,
-1789523007563371,00000102,false,Rx,0,8,00,00,64,66,60,63,7B,00,
-1789523007562432,00000104,false,Rx,0,8,04,7F,00,7F,00,27,0F,00,
-1789523007561451,0000010E,false,Rx,0,8,00,00,00,00,00,00,00,00,
-1789523007557440,00000288,false,Rx,0,5,06,10,FF,FF,FF,00,00,00,
-1789523007556544,00000288,false,Rx,0,4,08,00,00,00,00,00,00,00,
-1789523007536022,00000280,false,Rx,0,8,14,BB,5C,5D,01,89,9C,00,
-1789523007534955,00000280,false,Rx,0,8,04,4E,F8,00,00,00,00,00,
-1789523007516438,00000006,false,Rx,0,3,1E,00,00,00,00,00,00,00,
-1789523007515713,00000006,false,Rx,0,3,1E,01,01,00,00,00,00,00,
-1789523007515073,00000006,false,Rx,0,3,1E,02,01,00,00,00,00,00,
-1789523007514390,00000006,false,Rx,0,3,1E,03,78,00,00,00,00,00,
-1789523007463404,00000102,false,Rx,0,8,00,00,64,66,60,63,7B,00,
-1789523007462423,00000104,false,Rx,0,8,04,7F,00,7F,00,28,0F,00,
-1789523007461442,0000010E,false,Rx,0,8,00,00,00,00,00,00,00,00,
-1789523007457431,00000288,false,Rx,0,5,06,10,FF,FF,FF,00,00,00,
-1789523007456279,00000288,false,Rx,0,8,04,00,24,BA,3D,96,0D,00,
-1789523007455341,00000288,false,Rx,0,7,04,01,19,5E,C3,F2,2E,00,
-1789523007454274,00000288,false,Rx,0,8,04,02,37,04,2A,2F,0E,00,
-1789523007453378,00000288,false,Rx,0,7,04,03,D6,E7,71,15,2E,00,
-1789523007452525,00000288,false,Rx,0,4,08,00,00,00,00,00,00,00,
-1789523007435245,00000280,false,Rx,0,8,14,BB,5C,5D,01,89,9C,00,
-1789523007434434,00000280,false,Rx,0,5,10,5C,5D,39,03,00,00,00,
-1789523007363353,00000102,false,Rx,0,8,00,00,64,66,60,64,7B,00,
-1789523007362371,00000104,false,Rx,0,8,04,7F,00,7F,00,29,10,00,
-1789523007361390,0000010E,false,Rx,0,8,00,00,00,00,00,00,00,00,
-1789523007357422,00000288,false,Rx,0,5,06,10,FF,FF,FF,00,00,00,
-1789523007356526,00000288,false,Rx,0,4,08,00,00,00,00,00,00,00,
-1789523007334382,00000280,false,Rx,0,8,14,BB,5C,5D,01,89,9D,00,
-1789523007333230,00000280,false,Rx,0,8,04,4E,F8,00,00,00,00,00,
-1789523007263497,00000102,false,Rx,0,8,00,00,64,66,60,63,7C,00,
-1789523007262516,00000104,false,Rx,0,8,04,7F,00,7F,00,2A,0F,00,
-1789523007261492,0000010E,false,Rx,0,8,00,00,00,00,00,00,00,00,
-1789523007257439,00000288,false,Rx,0,5,06,10,FF,FF,FF,00,00,00,
-1789523007256500,00000288,false,Rx,0,4,08,00,00,00,00,00,00,00,
-1789523007233588,00000280,false,Rx,0,8,14,BB,5C,5D,01,88,9C,03,
-1789523007232436,00000280,false,Rx,0,8,04,4E,F8,00,00,00,00,00,
-1789523007163360,00000102,false,Rx,0,8,00,00,64,66,60,63,7B,00,
-1789523007162421,00000104,false,Rx,0,8,04,7F,00,7F,00,2B,0F,00,
-1789523007161397,0000010E,false,Rx,0,8,00,00,00,00,00,00,00,00,
-1789523007157430,00000288,false,Rx,0,5,06,10,FF,FF,FF,00,00,00,
-1789523007156491,00000288,false,Rx,0,4,08,00,00,00,00,00,00,00,
-1789523007154230,0000010A,false,Rx,0,5,00,00,64,00,00,00,00,00,
-1789523007153504,0000010C,false,Rx,0,3,00,00,00,00,00,00,00,00,
-1789523007132811,00000280,false,Rx,0,8,14,BB,5C,5D,01,89,9C,00,
-1789523007131659,00000280,false,Rx,0,8,04,4E,F8,00,00,00,00,00,
-1789523007063351,00000102,false,Rx,0,8,00,00,64,66,60,63,7B,00,
-1789523007062370,00000104,false,Rx,0,8,04,7F,00,7F,00,2C,10,00,
-1789523007061388,0000010E,false,Rx,0,8,00,00,00,00,00,00,00,00,
-1789523007057420,00000288,false,Rx,0,5,06,FF,FE,FF,FF,00,00,00,
-1789523007056524,00000288,false,Rx,0,4,08,00,00,00,00,00,00,00,
-1789523007032034,00000280,false,Rx,0,8,14,BB,5C,5D,01,88,9C,03,
-1789523007031266,00000280,false,Rx,0,5,06,22,07,C0,19,00,00,00,
-1789523007010744,0000030A,false,Rx,0,3,1E,03,78,00,00,00,00,00,
-1789523007010189,00000312,false,Rx,0,3,1E,03,78,00,00,00,00,00,
-1789523007009251,0000030A,false,Rx,0,8,20,02,45,7D,4A,7D,41,7D,
-1789523007008269,00000310,false,Rx,0,8,20,01,3C,7D,3C,7D,32,7D,
-1789523007007331,00000318,false,Rx,0,8,20,01,41,7D,45,7D,41,7D,
-1789523007006349,00000318,false,Rx,0,8,20,00,3C,7D,41,7D,3C,7D,
-1789523007005411,00000312,false,Rx,0,8,20,02,32,7D,32,7D,41,7D,
-1789523007004472,00000310,false,Rx,0,8,20,00,3C,7D,3C,7D,37,7D,
-1789523007003491,00000308,false,Rx,0,8,20,01,1F,7D,3C,7D,4A,7D,
-1789523007002552,00000308,false,Rx,0,8,20,00,45,7D,45,7D,3C,7D,
-1789523007001613,0000031A,false,Rx,0,8,20,02,41,7D,4A,7D,37,7D,
-1789523007001016,0000031A,false,Rx,0,3,1E,03,78,00,00,00,00,00,
-1789523007000419,0000034A,false,Rx,0,3,1E,03,78,00,00,00,00,00,
-1789523006999821,00000342,false,Rx,0,3,1E,03,78,00,00,00,00,00,
-1789523006999224,0000033A,false,Rx,0,3,1E,03,78,00,00,00,00,00,
-1789523006998627,00000332,false,Rx,0,3,1E,03,78,00,00,00,00,00,
-1789523006998072,0000032A,false,Rx,0,3,1E,03,78,00,00,00,00,00,
-1789523006997475,00000322,false,Rx,0,3,1E,03,78,00,00,00,00,00,
-1789523006996877,00000352,false,Rx,0,3,1E,03,78,00,00,00,00,00,
-1789523006996280,0000035A,false,Rx,0,3,1E,03,78,00,00,00,00,00,
-1789523006995469,00000380,false,Rx,0,6,09,35,00,00,1B,04,00,00,
-1789523006963299,00000102,false,Rx,0,8,00,00,64,66,60,64,7B,00,
-1789523006962361,00000104,false,Rx,0,8,04,7F,00,7F,00,2D,0F,00,
-1789523006961337,0000010E,false,Rx,0,8,00,00,00,00,00,00,00,00,
-1789523006957411,00000288,false,Rx,0,5,06,10,FF,FF,FF,00,00,00,
-1789523006956515,00000288,false,Rx,0,4,08,00,00,00,00,00,00,00,
-1789523006931214,00000280,false,Rx,0,8,14,BB,5C,5D,01,88,9C,03,
-1789523006930062,00000280,false,Rx,0,8,04,4E,F8,00,00,00,00,00,
-1789523006863375,00000102,false,Rx,0,8,00,00,64,66,60,64,7B,00,
-1789523006862437,00000104,false,Rx,0,8,04,7F,00,7F,00,2E,10,00,
-1789523006861413,0000010E,false,Rx,0,8,00,00,00,00,00,00,00,00,
-1789523006857402,00000288,false,Rx,0,5,06,10,FF,FF,FF,00,00,00,
-1789523006856506,00000288,false,Rx,0,4,08,00,00,00,00,00,00,00,
-1789523006830437,00000280,false,Rx,0,8,14,BB,5C,5D,01,89,9C,00,
-1789523006829285,00000280,false,Rx,0,8,04,4E,F8,00,00,00,00,00,
-1789523006787814,00000380,false,Rx,0,7,02,00,12,00,00,00,F8,00,
-1789523006763366,00000102,false,Rx,0,8,00,00,64,66,60,63,7B,00,
-1789523006762428,00000104,false,Rx,0,8,04,7F,00,7F,00,2F,0F,00,
-1789523006761446,0000010E,false,Rx,0,8,00,00,00,00,00,00,00,00,
-1789523006757393,00000288,false,Rx,0,5,06,FF,FE,FF,FF,00,00,00,
-1789523006756497,00000288,false,Rx,0,4,08,00,00,00,00,00,00,00,
-1789523006729660,00000280,false,Rx,0,8,14,BB,5C,5D,01,89,9C,00,
-1789523006728508,00000280,false,Rx,0,8,04,4E,F8,00,00,00,00,00,
-1789523006663528,00000102,false,Rx,0,8,00,00,64,66,60,63,7B,00,
-1789523006662547,00000104,false,Rx,0,8,04,7F,00,7F,00,20,0F,00,
-1789523006661565,0000010E,false,Rx,0,8,00,00,00,00,00,00,00,00,
-1789523006657384,00000288,false,Rx,0,5,06,FF,FE,FF,FF,00,00,00,
-1789523006656531,00000288,false,Rx,0,4,08,00,00,00,00,00,00,00,
-1789523006628798,00000280,false,Rx,0,8,14,BB,5C,5D,01,89,9D,00,
-1789523006627646,00000280,false,Rx,0,8,04,4E,F8,00,00,00,00,00,
-1789523006563391,00000102,false,Rx,0,8,00,00,64,66,60,63,7B,00,
-1789523006562409,00000104,false,Rx,0,8,04,7F,00,7F,00,21,10,00,
-1789523006561386,0000010E,false,Rx,0,8,00,00,00,00,00,00,00,00,
-1789523006557418,00000288,false,Rx,0,5,06,FF,FE,FF,FF,00,00,00,
-1789523006556522,00000288,false,Rx,0,4,08,00,00,00,00,00,00,00,
-1789523006555839,00000006,false,Rx,0,4,25,00,00,00,00,00,00,00,
-1789523006528021,00000280,false,Rx,0,8,14,BB,5C,5D,01,89,9C,00,
-1789523006526911,00000280,false,Rx,0,8,04,4E,F8,00,00,00,00,00,
-1789523006463339,00000102,false,Rx,0,8,00,00,64,66,60,64,7B,00,
-1789523006462358,00000104,false,Rx,0,8,04,7F,00,7F,00,22,0F,00,
-1789523006461376,0000010E,false,Rx,0,8,00,00,00,00,00,00,00,00,
-1789523006457408,00000288,false,Rx,0,5,06,FF,FE,FF,FF,00,00,00,
-1789523006456256,00000288,false,Rx,0,8,04,00,25,BA,3D,96,0D,00,
-1789523006455361,00000288,false,Rx,0,7,04,01,19,5E,C3,F2,2E,00,
-1789523006454251,00000288,false,Rx,0,8,04,02,6C,05,2A,2F,0E,00,
-1789523006453355,00000288,false,Rx,0,7,04,03,B1,EB,71,15,2E,00,
-1789523006452502,00000288,false,Rx,0,4,08,00,00,00,00,00,00,00,
-1789523006427201,00000280,false,Rx,0,8,14,BB,5C,5D,01,89,9D,00,
-1789523006426604,00000006,false,Rx,0,3,1E,03,78,00,00,00,00,00,
-1789523006425878,00000280,false,Rx,0,5,10,5C,5D,39,03,00,00,00,
-1789523006363415,00000102,false,Rx,0,8,00,00,64,66,60,63,7C,00,
-1789523006362434,00000104,false,Rx,0,8,04,7F,00,7F,00,23,10,00,
-1789523006361453,0000010E,false,Rx,0,8,00,00,00,00,00,00,00,00,
-1789523006357442,00000288,false,Rx,0,5,06,10,FF,FF,FF,00,00,00,
-1789523006356503,00000288,false,Rx,0,4,08,00,00,00,00,00,00,00,
-1789523006345410,0000030A,false,Rx,0,3,1E,03,78,00,00,00,00,00,
-1789523006344856,00000312,false,Rx,0,3,1E,03,78,00,00,00,00,00,
-1789523006343874,0000030A,false,Rx,0,8,20,02,41,7D,4A,7D,3C,7D,
-1789523006342936,00000310,false,Rx,0,8,20,01,3C,7D,3C,7D,32,7D,
-1789523006341997,00000318,false,Rx,0,8,20,01,41,7D,4A,7D,41,7D,
-1789523006341016,00000318,false,Rx,0,8,20,00,37,7D,41,7D,3C,7D,
-1789523006340077,00000312,false,Rx,0,8,20,02,32,7D,32,7D,41,7D,
-1789523006339138,00000310,false,Rx,0,8,20,00,3C,7D,3C,7D,37,7D,
-1789523006338157,00000308,false,Rx,0,8,20,01,1F,7D,37,7D,4A,7D,
-1789523006337218,00000308,false,Rx,0,8,20,00,45,7D,45,7D,3C,7D,
-1789523006336237,0000031A,false,Rx,0,8,20,02,41,7D,4A,7D,37,7D,
-1789523006335682,0000031A,false,Rx,0,3,1E,03,78,00,00,00,00,00,
-1789523006335085,0000034A,false,Rx,0,3,1E,03,78,00,00,00,00,00,
-1789523006334488,00000342,false,Rx,0,3,1E,03,78,00,00,00,00,00,
-1789523006333890,0000033A,false,Rx,0,3,1E,03,78,00,00,00,00,00,
-1789523006333293,00000332,false,Rx,0,3,1E,03,78,00,00,00,00,00,
-1789523006332696,0000032A,false,Rx,0,3,1E,03,78,00,00,00,00,00,
-1789523006332141,00000322,false,Rx,0,3,1E,03,78,00,00,00,00,00,
-1789523006331544,00000352,false,Rx,0,3,1E,03,78,00,00,00,00,00,
-1789523006330946,0000035A,false,Rx,0,3,1E,03,78,00,00,00,00,00,
-1789523006326424,00000280,false,Rx,0,8,14,BB,5C,5D,01,89,9C,00,
-1789523006325272,00000280,false,Rx,0,8,04,4E,F8,00,00,00,00,00,
-1789523006263349,00000102,false,Rx,0,8,00,00,64,66,60,63,7B,00,
-1789523006262367,00000104,false,Rx,0,8,04,7F,00,7F,00,24,0F,00,
-1789523006261386,0000010E,false,Rx,0,8,00,00,00,00,00,00,00,00,
-1789523006257418,00000288,false,Rx,0,5,06,10,FF,FF,FF,00,00,00,
-1789523006256479,00000288,false,Rx,0,4,08,00,00,00,00,00,00,00,
-1789523006225632,00000280,false,Rx,0,8,14,BB,5C,5D,01,89,9C,00,
-1789523006224480,00000280,false,Rx,0,8,04,4E,F8,00,00,00,00,00,
-1789523006163425,00000102,false,Rx,0,8,00,00,64,66,60,64,7B,00,
-1789523006162443,00000104,false,Rx,0,8,04,7F,00,7F,00,25,0F,00,
-1789523006161462,0000010E,false,Rx,0,8,00,00,00,00,00,00,00,00,
-1789523006157409,00000288,false,Rx,0,5,06,10,FF,FF,FF,00,00,00,
-1789523006156513,00000288,false,Rx,0,4,08,00,00,00,00,00,00,00,
-1789523006146060,0000010A,false,Rx,0,5,00,00,64,00,00,00,00,00,
-1789523006145377,0000010C,false,Rx,0,3,00,00,00,00,00,00,00,00,
-1789523006124769,00000280,false,Rx,0,8,14,BB,5C,5D,01,89,9D,00,
-1789523006123745,00000280,false,Rx,0,8,04,4E,F8,00,00,00,00,00,
-1789523006063373,00000102,false,Rx,0,8,00,00,64,66,60,64,7C,00,
-1789523006062434,00000104,false,Rx,0,8,04,7F,00,7F,00,26,10,00,
-1789523006061453,0000010E,false,Rx,0,8,00,00,00,00,00,00,00,00,
-1789523006057400,00000288,false,Rx,0,5,06,10,FF,FF,FF,00,00,00,
-1789523006056504,00000288,false,Rx,0,4,08,00,00,00,00,00,00,00,
-1789523006024035,00000280,false,Rx,0,8,14,BB,5C,5D,01,89,9C,00,
-1789523006023182,00000280,false,Rx,0,5,06,22,07,C0,19,00,00,00,
-1789523006005475,00000380,false,Rx,0,6,09,35,00,00,1B,04,00,00,
-1789523005963364,00000102,false,Rx,0,8,00,00,64,66,60,63,7B,00,
-1789523005962383,00000104,false,Rx,0,8,04,7F,00,7F,00,27,0F,00,
-1789523005961401,0000010E,false,Rx,0,8,00,00,00,00,00,00,00,00,
-1789523005957391,00000288,false,Rx,0,5,06,FF,FE,FF,FF,00,00,00,
-1789523005956495,00000288,false,Rx,0,4,08,00,00,00,00,00,00,00,
-1789523005923215,00000280,false,Rx,0,8,14,BB,5C,5D,01,88,9D,03,
-1789523005922148,00000280,false,Rx,0,8,04,4E,F8,00,00,00,00,00,
-1789523005863440,00000102,false,Rx,0,8,00,00,64,66,60,64,7B,00,
-1789523005862459,00000104,false,Rx,0,8,04,7F,00,7F,00,28,0F,00,
-1789523005861477,0000010E,false,Rx,0,8,00,00,00,00,00,00,00,00,
-1789523005857382,00000288,false,Rx,0,5,06,FF,FE,FF,FF,00,00,00,
-1789523005856486,00000288,false,Rx,0,4,08,00,00,00,00,00,00,00,
-1789523005822438,00000280,false,Rx,0,8,14,BB,5C,5D,01,88,9C,03,
-1789523005821286,00000280,false,Rx,0,8,04,4E,F8,00,00,00,00,00,
-1789523005784679,00000380,false,Rx,0,7,02,00,12,00,00,00,FC,00,
-1789523005763388,00000102,false,Rx,0,8,00,00,64,66,60,63,7C,00,
-1789523005762407,00000104,false,Rx,0,8,04,7F,00,7F,00,29,10,00,
-1789523005761426,0000010E,false,Rx,0,8,00,00,00,00,00,00,00,00,
-1789523005757415,00000288,false,Rx,0,5,06,10,FF,FF,FF,00,00,00,
-1789523005756519,00000288,false,Rx,0,4,08,00,00,00,00,00,00,00,
-1789523005721618,00000280,false,Rx,0,8,14,BB,5C,5D,01,89,9D,00,
-1789523005720552,00000280,false,Rx,0,8,04,4E,F8,00,00,00,00,00,
-1789523005679464,00000320,false,Rx,0,8,20,00,32,7D,37,7D,3C,7D,
-1789523005678483,00000320,false,Rx,0,8,20,01,41,7D,41,7D,41,7D,
-1789523005677544,00000322,false,Rx,0,8,20,02,45,7D,45,7D,55,7C,
-1789523005676563,00000328,false,Rx,0,8,20,01,45,7D,4A,7D,41,7D,
-1789523005675624,00000330,false,Rx,0,8,20,00,4A,7D,45,7D,37,7D,
-1789523005674686,0000032A,false,Rx,0,8,20,02,37,7D,41,7D,45,7D,
-1789523005673747,00000328,false,Rx,0,8,20,00,45,7D,37,7D,4F,7D,
-1789523005672766,00000330,false,Rx,0,8,20,01,37,7D,41,7D,3C,7D,
-1789523005671827,00000332,false,Rx,0,8,20,02,41,7D,3C,7D,41,7D,
-1789523005663550,00000102,false,Rx,0,8,00,00,64,66,60,63,7B,00,
-1789523005662569,00000104,false,Rx,0,8,04,7F,00,7F,00,2A,0F,00,
-1789523005661587,0000010E,false,Rx,0,8,00,00,00,00,00,00,00,00,
-1789523005657406,00000288,false,Rx,0,5,06,10,FF,FF,FF,00,00,00,
-1789523005656510,00000288,false,Rx,0,4,08,00,00,00,00,00,00,00,
-1789523005620841,00000280,false,Rx,0,8,14,BB,5C,5D,01,89,9C,00,
-1789523005619689,00000280,false,Rx,0,8,04,4E,F8,00,00,00,00,00,
-1789523005563327,00000102,false,Rx,0,8,00,00,64,66,60,64,7B,00,
-1789523005562389,00000104,false,Rx,0,8,04,7F,00,7F,00,2B,11,00,
-1789523005561407,0000010E,false,Rx,0,8,00,00,00,00,00,00,00,00,
-1789523005557397,00000288,false,Rx,0,5,06,10,FF,FF,FF,00,00,00,
-1789523005556501,00000288,false,Rx,0,4,08,00,00,00,00,00,00,00,
-1789523005520021,00000280,false,Rx,0,8,14,BB,5C,5D,01,88,9C,03,
-1789523005518869,00000280,false,Rx,0,8,04,4E,F8,00,00,00,00,00,
-1789523005517632,00000006,false,Rx,0,4,25,00,00,00,00,00,00,00,
-1789523005463574,00000102,false,Rx,0,8,00,00,64,66,60,64,7B,00,
-1789523005462593,00000104,false,Rx,0,8,04,7F,00,7F,00,2C,0F,00,
-1789523005461612,0000010E,false,Rx,0,8,00,00,00,00,00,00,00,00,
-1789523005457430,00000288,false,Rx,0,5,06,10,FF,FF,FF,00,00,00,
-1789523005456236,00000288,false,Rx,0,8,04,00,26,BA,3D,96,0D,00,
-1789523005455340,00000288,false,Rx,0,7,04,01,19,5E,C3,F2,2E,00,
-1789523005454273,00000288,false,Rx,0,8,04,02,9C,06,2A,2F,0E,00,
-1789523005453334,00000288,false,Rx,0,7,04,03,7D,EF,71,15,2E,00,
-1789523005452481,00000288,false,Rx,0,4,08,00,00,00,00,00,00,00,
-1789523005419244,00000280,false,Rx,0,8,14,BB,5C,5D,01,89,9C,00,
-1789523005418178,00000280,false,Rx,0,8,04,4E,F8,00,00,00,00,00,
-1789523005363437,00000102,false,Rx,0,8,00,00,64,66,60,63,7B,00,
-1789523005362456,00000104,false,Rx,0,8,04,7F,00,7F,00,2D,0F,00,
-1789523005361475,0000010E,false,Rx,0,8,00,00,00,00,00,00,00,00,
-1789523005357421,00000288,false,Rx,0,5,06,10,FF,FF,FF,00,00,00,
-1789523005356525,00000288,false,Rx,0,4,08,00,00,00,00,00,00,00,
-1789523005318425,00000280,false,Rx,0,8,14,BB,5C,5D,01,89,9C,00,
-1789523005317614,00000280,false,Rx,0,5,10,5C,5D,39,03,00,00,00,
-1789523005263457,00000102,false,Rx,0,8,00,00,64,66,60,63,7B,00,
-1789523005262476,00000104,false,Rx,0,8,04,7F,00,7F,00,2E,10,00,
-1789523005261494,0000010E,false,Rx,0,8,00,00,00,00,00,00,00,00,
-1789523005257441,00000288,false,Rx,0,5,06,10,FF,FF,FF,00,00,00,
-1789523005256545,00000288,false,Rx,0,4,08,00,00,00,00,00,00,00,
-1789523005217634,00000280,false,Rx,0,8,14,BB,5C,5D,01,88,9D,03,
-1789523005216610,00000280,false,Rx,0,8,04,4E,F8,00,00,00,00,00,
-1789523005163619,00000102,false,Rx,0,8,00,00,64,66,60,63,7B,00,
-1789523005162637,00000104,false,Rx,0,8,04,7F,00,7F,00,2F,0F,00,
-1789523005161656,0000010E,false,Rx,0,8,00,00,00,00,00,00,00,00,
-1789523005157432,00000288,false,Rx,0,5,06,10,FF,FF,FF,00,00,00,
-1789523005156536,00000288,false,Rx,0,4,08,00,00,00,00,00,00,00,
-1789523005134307,0000010A,false,Rx,0,5,00,00,64,00,00,00,00,00,
-1789523005133582,0000010C,false,Rx,0,3,00,00,00,00,00,00,00,00,
-1789523005116899,00000280,false,Rx,0,8,14,BB,5C,5D,01,89,9C,00,
-1789523005115747,00000280,false,Rx,0,8,04,4E,F8,00,00,00,00,00,
-1789523005063439,00000102,false,Rx,0,8,00,00,64,66,60,63,7C,00,
-1789523005062458,00000104,false,Rx,0,8,04,7F,00,7F,00,20,10,00,
-1789523005061476,0000010E,false,Rx,0,8,00,00,00,00,00,00,00,00,
-1789523005057466,00000288,false,Rx,0,5,06,10,FF,FF,FF,00,00,00,
-1789523005056527,00000288,false,Rx,0,4,08,00,00,00,00,00,00,00,
-1789523005016037,00000280,false,Rx,0,8,14,BB,5C,5D,01,88,9D,03,
-1789523005015269,00000280,false,Rx,0,5,06,22,07,C0,19,00,00,00,
-1789523005014160,00000308,false,Rx,0,8,20,00,45,7D,45,7D,3C,7D,
-1789523005013178,00000308,false,Rx,0,8,20,01,1F,7D,3C,7D,4A,7D,
-1789523005012240,0000030A,false,Rx,0,8,20,02,45,7D,4A,7D,41,7D,
-1789523005011301,00000310,false,Rx,0,8,20,01,41,7D,3C,7D,32,7D,
-1789523005010320,00000318,false,Rx,0,8,20,00,37,7D,41,7D,41,7D,
-1789523005009381,00000312,false,Rx,0,8,20,02,32,7D,32,7D,41,7D,
-1789523005008400,00000310,false,Rx,0,8,20,00,3C,7D,41,7D,37,7D,
-1789523005007461,00000318,false,Rx,0,8,20,01,41,7D,45,7D,41,7D,
-1789523005006522,0000031A,false,Rx,0,8,20,02,41,7D,4A,7D,37,7D,
-1789523005002427,00000380,false,Rx,0,6,09,35,00,00,1B,04,00,00,
-1789523004963643,00000102,false,Rx,0,8,00,00,64,66,60,64,7B,00,
-1789523004962662,00000104,false,Rx,0,8,04,7F,00,7F,00,21,0F,00,
-1789523004961681,0000010E,false,Rx,0,8,00,00,00,00,00,00,00,00,
-1789523004957457,00000288,false,Rx,0,5,06,10,FF,FF,FF,00,00,00,
-1789523004956561,00000288,false,Rx,0,4,08,00,00,00,00,00,00,00,
-1789523004915260,00000280,false,Rx,0,8,14,BB,5C,5D,01,89,9C,00,
-1789523004914151,00000280,false,Rx,0,8,04,4E,F8,00,00,00,00,00,
-1789523004863463,00000102,false,Rx,0,8,00,00,64,66,60,64,7B,00,
-1789523004862525,00000104,false,Rx,0,8,04,7F,00,7F,00,22,10,00,
-1789523004861501,0000010E,false,Rx,0,8,00,00,00,00,00,00,00,00,
-1789523004857447,00000288,false,Rx,0,5,06,10,FF,FF,FF,00,00,00,
-1789523004856551,00000288,false,Rx,0,4,08,00,00,00,00,00,00,00,
-1789523004814440,00000280,false,Rx,0,8,14,BB,5C,5D,01,88,9C,03,
-1789523004813288,00000280,false,Rx,0,8,04,4E,F8,00,00,00,00,00,
-1789523004781673,00000380,false,Rx,0,7,02,00,12,00,00,00,00,00,
-1789523004763497,00000102,false,Rx,0,8,00,00,64,66,60,63,7B,00,
-1789523004762516,00000104,false,Rx,0,8,04,7F,00,7F,00,23,10,00,
-1789523004761534,0000010E,false,Rx,0,8,00,00,00,00,00,00,00,00,
-1789523004757438,00000288,false,Rx,0,5,06,10,FF,FF,FF,00,00,00,
-1789523004756542,00000288,false,Rx,0,4,08,00,00,00,00,00,00,00,
-1789523004713663,00000280,false,Rx,0,8,14,BB,5C,5D,01,88,9D,03,
-1789523004712639,00000280,false,Rx,0,8,04,4E,F8,00,00,00,00,00,
-1789523004663445,00000102,false,Rx,0,8,00,00,64,66,60,63,7B,00,
-1789523004662464,00000104,false,Rx,0,8,04,7F,00,7F,00,24,0F,00,
-1789523004661483,0000010E,false,Rx,0,8,00,00,00,00,00,00,00,00,
-1789523004657472,00000288,false,Rx,0,5,06,10,FF,FF,FF,00,00,00,
-1789523004656533,00000288,false,Rx,0,4,08,00,00,00,00,00,00,00,
-1789523004612843,00000280,false,Rx,0,8,14,BB,5C,5D,01,89,9D,00,
-1789523004611691,00000280,false,Rx,0,8,04,4E,F8,00,00,00,00,00,
-1789523004563649,00000102,false,Rx,0,8,00,00,64,66,60,63,7B,00,
-1789523004562668,00000104,false,Rx,0,8,04,7F,00,7F,00,25,10,00,
-1789523004561687,0000010E,false,Rx,0,8,00,00,00,00,00,00,00,00,
-1789523004557463,00000288,false,Rx,0,5,06,10,FF,FF,FF,00,00,00,
-1789523004556524,00000288,false,Rx,0,4,08,00,00,00,00,00,00,00,
-1789523004512066,00000280,false,Rx,0,8,14,BB,5C,5D,01,88,9D,03,
-1789523004511000,00000280,false,Rx,0,8,04,4E,F8,00,00,00,00,00,
-1789523004509720,00000006,false,Rx,0,4,25,00,00,00,00,00,00,00,
-1789523004463512,00000102,false,Rx,0,8,00,00,64,66,60,63,7B,00,
-1789523004462531,00000104,false,Rx,0,8,04,7F,00,7F,00,26,0F,00,
-1789523004461550,0000010E,false,Rx,0,8,00,00,00,00,00,00,00,00,
-1789523004457454,00000288,false,Rx,0,5,06,10,FF,FF,FF,00,00,00,
-1789523004456302,00000288,false,Rx,0,8,04,00,27,BA,3D,96,0D,00,
-1789523004455363,00000288,false,Rx,0,7,04,01,19,5E,C3,F2,2E,00,
-1789523004454296,00000288,false,Rx,0,8,04,02,C8,07,2A,2F,0E,00,
-1789523004453358,00000288,false,Rx,0,7,04,03,3D,F3,71,15,2E,00,
-1789523004452547,00000288,false,Rx,0,4,08,00,00,00,00,00,00,00,
-1789523004411289,00000280,false,Rx,0,8,14,BB,5C,5D,01,89,9C,00,
-1789523004410137,00000280,false,Rx,0,8,04,4E,F8,00,00,00,00,00,
-1789523004363674,00000102,false,Rx,0,8,00,00,64,66,60,63,7B,00,
-1789523004362693,00000104,false,Rx,0,8,04,7F,00,7F,00,27,10,00,
-1789523004361711,0000010E,false,Rx,0,8,00,00,00,00,00,00,00,00,
-1789523004357445,00000288,false,Rx,0,5,06,10,FF,FF,FF,00,00,00,
-1789523004356549,00000288,false,Rx,0,4,08,00,00,00,00,00,00,00,
-1789523004348826,00000308,false,Rx,0,8,20,00,45,7D,45,7D,3C,7D,
-1789523004347845,00000308,false,Rx,0,8,20,01,1F,7D,37,7D,45,7D,
-1789523004346906,0000030A,false,Rx,0,8,20,02,45,7D,4A,7D,41,7D,
-1789523004345967,00000310,false,Rx,0,8,20,01,41,7D,3C,7D,32,7D,
-1789523004344986,00000318,false,Rx,0,8,20,00,37,7D,41,7D,3C,7D,
-1789523004344047,00000312,false,Rx,0,8,20,02,32,7D,32,7D,41,7D,
-1789523004343109,00000310,false,Rx,0,8,20,00,3C,7D,3C,7D,37,7D,
-1789523004342128,00000318,false,Rx,0,8,20,01,41,7D,45,7D,41,7D,
-1789523004341189,0000031A,false,Rx,0,8,20,02,41,7D,4A,7D,32,7D,
-1789523004310469,00000280,false,Rx,0,8,14,BB,5C,5D,01,89,9C,00,
-1789523004309445,00000280,false,Rx,0,8,04,4E,F8,00,00,00,00,00,
-1789523004263468,00000102,false,Rx,0,8,00,00,64,66,60,63,7B,00,
-1789523004262487,00000104,false,Rx,0,8,04,7F,00,7F,00,28,0F,00,
-1789523004261505,0000010E,false,Rx,0,8,00,00,00,00,00,00,00,00,
-1789523004257410,00000288,false,Rx,0,5,06,10,FF,FF,FF,00,00,00,
-1789523004256514,00000288,false,Rx,0,4,08,00,00,00,00,00,00,00,
-1789523004209624,00000280,false,Rx,0,8,14,BB,5C,5D,01,88,9D,03,
-1789523004208898,00000280,false,Rx,0,5,10,5C,5D,39,03,00,00,00,
-1789523004163374,00000102,false,Rx,0,8,00,00,64,66,60,64,7C,00,
-1789523004162392,00000104,false,Rx,0,8,04,7F,00,7F,00,29,10,00,
-1789523004161411,0000010E,false,Rx,0,8,00,00,00,00,00,00,00,00,
-1789523004157443,00000288,false,Rx,0,5,06,10,FF,FF,FF,00,00,00,
-1789523004156504,00000288,false,Rx,0,4,08,00,00,00,00,00,00,00,
-1789523004124206,0000010A,false,Rx,0,5,00,00,64,00,00,00,00,00,
-1789523004123481,0000010C,false,Rx,0,3,00,00,00,00,00,00,00,00,
-1789523004108846,00000280,false,Rx,0,8,14,BB,5C,5D,01,88,9D,03,
-1789523004107780,00000280,false,Rx,0,8,04,4E,F8,00,00,00,00,00,
-1789523004063621,00000102,false,Rx,0,8,00,00,64,66,60,63,7B,00,
-1789523004062639,00000104,false,Rx,0,8,04,7F,00,7F,00,2A,0F,00,
-1789523004061658,0000010E,false,Rx,0,8,00,00,00,00,00,00,00,00,
-1789523004057434,00000288,false,Rx,0,5,06,10,FF,FF,FF,00,00,00,
-1789523004056495,00000288,false,Rx,0,4,08,00,00,00,00,00,00,00,
-1789523004008069,00000280,false,Rx,0,8,14,BB,5C,5D,01,89,9C,00,
-1789523004007045,00000280,false,Rx,0,8,04,4E,F8,00,00,00,00,00,
-1789523003999451,00000380,false,Rx,0,6,09,35,00,00,1B,04,00,00,
-1789523003963611,00000102,false,Rx,0,8,00,00,64,66,60,63,7C,00,
-1789523003962630,00000104,false,Rx,0,8,04,7F,00,7F,00,2B,10,00,
-1789523003961649,0000010E,false,Rx,0,8,00,00,00,00,00,00,00,00,
-1789523003957425,00000288,false,Rx,0,5,06,20,FF,FF,FF,00,00,00,
-1789523003956529,00000288,false,Rx,0,4,08,00,00,00,00,00,00,00,
-1789523003907250,00000280,false,Rx,0,8,14,BB,5C,5D,01,89,9D,00,
-1789523003906183,00000280,false,Rx,0,8,04,4E,F8,00,00,00,00,00,
-1789523003863688,00000102,false,Rx,0,8,00,00,64,66,60,63,7B,00,
-1789523003862706,00000104,false,Rx,0,8,04,7F,00,7F,00,2C,10,00,
-1789523003861725,0000010E,false,Rx,0,8,00,00,00,00,00,00,00,00,
-1789523003857416,00000288,false,Rx,0,5,06,10,FF,FF,FF,00,00,00,
-1789523003856520,00000288,false,Rx,0,4,08,00,00,00,00,00,00,00,
-1789523003806473,00000280,false,Rx,0,8,14,BB,5C,5D,01,89,9C,00,
-1789523003805577,00000280,false,Rx,0,5,06,22,07,C0,19,00,00,00,
-1789523003778697,00000380,false,Rx,0,7,02,00,12,00,00,00,04,00,
-1789523003763593,00000102,false,Rx,0,8,00,00,64,66,60,63,7C,00,
-1789523003762655,00000104,false,Rx,0,8,04,7F,00,7F,00,2D,0E,00,
-1789523003761631,0000010E,false,Rx,0,8,00,00,00,00,00,00,00,00,
-1789523003757449,00000288,false,Rx,0,5,06,10,FF,FF,FF,00,00,00,
-1789523003756511,00000288,false,Rx,0,4,08,00,00,00,00,00,00,00,
-1789523003705653,00000280,false,Rx,0,8,14,BB,5C,5D,01,88,9D,03,
-1789523003704586,00000280,false,Rx,0,8,04,4E,F8,00,00,00,00,00,
-1789523003683424,00000320,false,Rx,0,8,20,00,32,7D,37,7D,3C,7D,
-1789523003682442,00000320,false,Rx,0,8,20,01,41,7D,41,7D,41,7D,
-1789523003681504,00000322,false,Rx,0,8,20,02,45,7D,45,7D,55,7C,
-1789523003680565,00000328,false,Rx,0,8,20,01,45,7D,4A,7D,41,7D,
-1789523003679627,00000330,false,Rx,0,8,20,00,4A,7D,45,7D,37,7D,
-1789523003678688,0000032A,false,Rx,0,8,20,02,3C,7D,41,7D,45,7D,
-1789523003677707,00000328,false,Rx,0,8,20,00,45,7D,37,7D,4F,7D,
-1789523003676768,00000330,false,Rx,0,8,20,01,37,7D,41,7D,3C,7D,
-1789523003675829,00000332,false,Rx,0,8,20,02,41,7D,41,7D,41,7D,
-1789523003663456,00000102,false,Rx,0,8,00,00,64,66,60,63,7B,00,
-1789523003662517,00000104,false,Rx,0,8,04,7F,00,7F,00,2E,10,00,
-1789523003661493,0000010E,false,Rx,0,8,00,00,00,00,00,00,00,00,
-1789523003657398,00000288,false,Rx,0,5,06,FF,FE,FF,FF,00,00,00,
-1789523003656502,00000288,false,Rx,0,4,08,00,00,00,00,00,00,00,
-1789523003604876,00000280,false,Rx,0,8,14,BB,5C,5D,01,89,9C,00,
-1789523003603724,00000280,false,Rx,0,8,04,4E,F8,00,00,00,00,00,
-1789523003563490,00000102,false,Rx,0,8,00,00,64,66,60,64,7B,00,
-1789523003562508,00000104,false,Rx,0,8,04,7F,00,7F,00,2F,0E,00,
-1789523003561527,0000010E,false,Rx,0,8,00,00,00,00,00,00,00,00,
-1789523003557431,00000288,false,Rx,0,5,06,FF,FE,FF,FF,00,00,00,
-1789523003556535,00000288,false,Rx,0,4,08,00,00,00,00,00,00,00,
-1789523003504099,00000280,false,Rx,0,8,14,BB,5C,5D,01,88,9C,03,
-1789523003502947,00000280,false,Rx,0,8,04,4E,F8,00,00,00,00,00,
-1789523003463523,00000102,false,Rx,0,8,00,00,64,66,60,63,7B,00,
-1789523003462542,00000104,false,Rx,0,8,04,7F,00,7F,00,20,0F,00,
-1789523003461561,0000010E,false,Rx,0,8,00,00,00,00,00,00,00,00,
-1789523003457422,00000288,false,Rx,0,5,06,10,FF,FF,FF,00,00,00,
-1789523003456270,00000288,false,Rx,0,8,04,00,28,BA,3D,96,0D,00,
-1789523003455331,00000288,false,Rx,0,7,04,01,19,5E,C3,F2,2E,00,
-1789523003454649,00000006,false,Rx,0,4,25,00,00,00,00,00,00,00,
-1789523003453710,00000288,false,Rx,0,8,04,02,EE,08,2A,2F,0E,00,
-1789523003452857,00000288,false,Rx,0,7,04,03,E8,F6,71,15,2E,00,
-1789523003452131,00000288,false,Rx,0,4,08,00,00,00,00,00,00,00,
-1789523003403236,00000280,false,Rx,0,8,14,BB,5C,5D,01,89,9C,00,
-1789523003402084,00000280,false,Rx,0,8,04,4E,F8,00,00,00,00,00,
-1789523003363429,00000102,false,Rx,0,8,00,00,64,66,60,63,7B,00,
-1789523003362490,00000104,false,Rx,0,8,04,7F,00,7F,00,21,10,00,
-1789523003361509,0000010E,false,Rx,0,8,00,00,00,00,00,00,00,00,
-1789523003357413,00000288,false,Rx,0,5,06,10,FF,FF,FF,00,00,00,
-1789523003356517,00000288,false,Rx,0,4,08,00,00,00,00,00,00,00,
-1789523003302502,00000280,false,Rx,0,8,14,BB,5C,5D,01,88,9D,03,
-1789523003301435,00000280,false,Rx,0,8,04,4E,F8,00,00,00,00,00,
-1789523003263544,00000102,false,Rx,0,8,00,00,64,66,60,63,7B,00,
-1789523003262562,00000104,false,Rx,0,8,04,7F,00,7F,00,22,0F,00,
-1789523003261581,0000010E,false,Rx,0,8,00,00,00,00,00,00,00,00,
-1789523003257442,00000288,false,Rx,0,5,06,10,FF,FF,FF,00,00,00,
-1789523003256504,00000288,false,Rx,0,4,08,00,00,00,00,00,00,00,
-1789523003201635,00000280,false,Rx,0,8,14,BB,5C,5D,01,88,9D,03,
-1789523003200910,00000280,false,Rx,0,5,10,5C,5D,39,03,00,00,00,
-1789523003163492,00000102,false,Rx,0,8,00,00,64,66,60,63,7B,00,
-1789523003162511,00000104,false,Rx,0,8,04,7F,00,7F,00,23,10,00,
-1789523003161529,0000010E,false,Rx,0,8,00,00,00,00,00,00,00,00,
-1789523003157433,00000288,false,Rx,0,5,06,10,FF,FF,FF,00,00,00,
-1789523003156495,00000288,false,Rx,0,4,08,00,00,00,00,00,00,00,
-1789523003113829,0000010A,false,Rx,0,5,00,00,64,00,00,00,00,00,
-1789523003113146,0000010C,false,Rx,0,3,00,00,00,00,00,00,00,00,
-1789523003100858,00000280,false,Rx,0,8,14,BB,5C,5D,01,89,9D,00,
-1789523003099706,00000280,false,Rx,0,8,04,4E,F8,00,00,00,00,00,
-1789523003063696,00000102,false,Rx,0,8,00,00,64,66,60,63,7B,00,
-1789523003062672,00000104,false,Rx,0,8,04,7F,00,7F,00,24,0F,00,
-1789523003061691,0000010E,false,Rx,0,8,00,00,00,00,00,00,00,00,
-1789523003057424,00000288,false,Rx,0,5,06,FF,FE,FF,FF,00,00,00,
-1789523003056528,00000288,false,Rx,0,4,08,00,00,00,00,00,00,00,
-1789523003018086,00000308,false,Rx,0,8,20,00,45,7D,45,7D,3C,7D,
-1789523003017148,00000308,false,Rx,0,8,20,01,1F,7D,37,7D,4A,7D,
-1789523003016209,0000030A,false,Rx,0,8,20,02,45,7D,4A,7D,3C,7D,
-1789523003015398,000000B8,false,Rx,0,6,29,7D,01,45,7D,04,00,00,
-1789523003014588,00000088,false,Rx,0,6,1F,7D,03,4A,7D,05,00,00,
-1789523003013649,00000310,false,Rx,0,8,20,01,41,7D,3C,7D,32,7D,
-1789523003012668,00000318,false,Rx,0,8,20,00,37,7D,41,7D,3C,7D,
-1789523003011729,00000312,false,Rx,0,8,20,02,32,7D,32,7D,41,7D,
-1789523003010748,00000310,false,Rx,0,8,20,00,3C,7D,3C,7D,37,7D,
-1789523003009809,00000318,false,Rx,0,8,20,01,41,7D,45,7D,41,7D,
-1789523003008870,0000031A,false,Rx,0,8,20,02,41,7D,4A,7D,37,7D,
-1789523003000081,00000280,false,Rx,0,8,14,BB,5C,5D,01,88,9C,03,
-1789523002998929,00000280,false,Rx,0,8,04,4E,F8,00,00,00,00,00,
-1789523002996412,00000380,false,Rx,0,6,09,35,00,00,1B,04,00,00,
-1789523002963644,00000102,false,Rx,0,8,00,00,64,66,60,64,7C,00,
-1789523002962706,00000104,false,Rx,0,8,04,7F,00,7F,00,25,10,00,
-1789523002961682,0000010E,false,Rx,0,8,00,00,00,00,00,00,00,00,
-1789523002957415,00000288,false,Rx,0,5,06,FF,FE,FF,FF,00,00,00,
-1789523002956519,00000288,false,Rx,0,4,08,00,00,00,00,00,00,00,
-1789523002945511,00000006,false,Rx,0,3,1E,03,78,00,00,00,00,00,
-1789523002899261,00000280,false,Rx,0,8,14,BB,5C,5D,01,89,9C,00,
-1789523002898109,00000280,false,Rx,0,8,04,4E,F8,00,00,00,00,00,
-1789523002863507,00000102,false,Rx,0,8,00,00,64,66,60,63,7B,00,
-1789523002862526,00000104,false,Rx,0,8,04,7F,00,7F,00,26,0F,00,
-1789523002861545,0000010E,false,Rx,0,8,00,00,00,00,00,00,00,00,
-1789523002857406,00000288,false,Rx,0,5,06,FF,FE,FF,FF,00,00,00,
-1789523002856510,00000288,false,Rx,0,4,08,00,00,00,00,00,00,00,
-1789523002798484,00000280,false,Rx,0,8,14,BB,5C,5D,01,88,9C,03,
-1789523002797460,00000280,false,Rx,0,8,04,4E,F8,00,00,00,00,00,
-1789523002775615,00000380,false,Rx,0,7,02,00,12,00,00,00,08,00,
-1789523002763712,00000102,false,Rx,0,8,00,00,64,66,60,63,7B,00,
-1789523002762773,00000104,false,Rx,0,8,04,7F,00,7F,00,27,0F,00,
-1789523002761749,0000010E,false,Rx,0,8,00,00,00,00,00,00,00,00,
-1789523002757397,00000288,false,Rx,0,5,06,FF,FE,FF,FF,00,00,00,
-1789523002756501,00000288,false,Rx,0,4,08,00,00,00,00,00,00,00,
-1789523002697622,00000280,false,Rx,0,8,14,BB,5C,5D,01,89,9C,00,
-1789523002696769,00000280,false,Rx,0,5,06,22,07,C0,19,00,00,00,
-1789523002663574,00000102,false,Rx,0,8,00,00,64,66,60,63,7B,00,
-1789523002662593,00000104,false,Rx,0,8,04,7F,00,7F,00,28,10,00,
-1789523002661569,0000010E,false,Rx,0,8,00,00,00,00,00,00,00,00,
-1789523002657431,00000288,false,Rx,0,5,06,FF,FE,FF,FF,00,00,00,
-1789523002656492,00000288,false,Rx,0,4,08,00,00,00,00,00,00,00,
-1789523002596887,00000280,false,Rx,0,8,14,BB,5C,5D,01,89,9C,00,
-1789523002595735,00000280,false,Rx,0,8,04,4E,F8,00,00,00,00,00,
-1789523002563565,00000102,false,Rx,0,8,00,00,64,66,60,63,7B,00,
-1789523002562584,00000104,false,Rx,0,8,04,7F,00,7F,00,29,0F,00,
-1789523002561603,0000010E,false,Rx,0,8,00,00,00,00,00,00,00,00,
-1789523002557421,00000288,false,Rx,0,5,06,FF,FE,FF,FF,00,00,00,
-1789523002556525,00000288,false,Rx,0,4,08,00,00,00,00,00,00,00,
-1789523002496750,00000006,false,Rx,0,3,1E,00,00,00,00,00,00,00,
-1789523002495854,00000280,false,Rx,0,8,14,BB,5C,5D,01,88,9C,03,
-1789523002495214,00000006,false,Rx,0,3,1E,01,01,00,00,00,00,00,
-1789523002494233,00000280,false,Rx,0,8,04,4E,F8,00,00,00,00,00,
-1789523002493636,00000006,false,Rx,0,3,1E,02,01,00,00,00,00,00,
-1789523002492996,00000006,false,Rx,0,3,1E,03,78,00,00,00,00,00,
-1789523002463514,00000102,false,Rx,0,8,00,00,64,66,60,63,7B,00,
-1789523002462532,00000104,false,Rx,0,8,04,7F,00,7F,00,2A,10,00,
-1789523002461551,0000010E,false,Rx,0,8,00,00,00,00,00,00,00,00,
-1789523002457412,00000288,false,Rx,0,5,06,FF,FE,FF,FF,00,00,00,
-1789523002456260,00000288,false,Rx,0,8,04,00,29,BA,3D,96,0D,00,
-1789523002455364,00000288,false,Rx,0,7,04,01,19,5E,C3,F2,2E,00,
-1789523002454255,00000288,false,Rx,0,8,04,02,27,0A,2A,2F,0E,00,
-1789523002453359,00000288,false,Rx,0,7,04,03,CF,FA,71,15,2E,00,
-1789523002452506,00000288,false,Rx,0,4,08,00,00,00,00,00,00,00,
-1789523002395291,00000280,false,Rx,0,8,14,BB,5C,5D,01,88,9C,03,
-1789523002394139,00000280,false,Rx,0,8,04,4E,F8,00,00,00,00,00,
-1789523002392688,00000006,false,Rx,0,4,25,00,00,00,00,00,00,00,
-1789523002363547,00000102,false,Rx,0,8,00,00,64,66,60,64,7B,00,
-1789523002362566,00000104,false,Rx,0,8,04,7F,00,7F,00,2B,0F,00,
-1789523002361584,0000010E,false,Rx,0,8,00,00,00,00,00,00,00,00,
-1789523002357446,00000288,false,Rx,0,5,06,10,FF,FF,FF,00,00,00,
-1789523002356507,00000288,false,Rx,0,4,08,00,00,00,00,00,00,00,
-1789523002353350,0000030A,false,Rx,0,3,1E,03,78,00,00,00,00,00,
-1789523002352753,00000312,false,Rx,0,3,1E,03,78,00,00,00,00,00,
-1789523002351814,0000030A,false,Rx,0,8,20,02,41,7D,4A,7D,3C,7D,
-1789523002350875,00000310,false,Rx,0,8,20,01,41,7D,3C,7D,32,7D,
-1789523002349937,000000BA,false,Rx,0,8,29,7D,45,7D,2A,67,04,41,
-1789523002348998,0000008A,false,Rx,0,8,1F,7D,4A,7D,32,67,04,53,
-1789523002348017,00000318,false,Rx,0,8,20,01,41,7D,45,7D,41,7D,
-1789523002347078,00000318,false,Rx,0,8,20,00,37,7D,41,7D,3C,7D,
-1789523002346097,00000312,false,Rx,0,8,20,02,32,7D,32,7D,41,7D,
-1789523002345158,00000310,false,Rx,0,8,20,00,3C,7D,41,7D,37,7D,
-1789523002344219,00000308,false,Rx,0,8,20,01,1F,7D,3C,7D,4A,7D,
-1789523002343238,00000308,false,Rx,0,8,20,00,45,7D,45,7D,3C,7D,
-1789523002342299,0000031A,false,Rx,0,8,20,02,41,7D,4A,7D,37,7D,
-1789523002341702,0000031A,false,Rx,0,3,1E,03,78,00,00,00,00,00,
-1789523002341105,0000034A,false,Rx,0,3,1E,03,78,00,00,00,00,00,
-1789523002340507,00000342,false,Rx,0,3,1E,03,78,00,00,00,00,00,
-1789523002339910,0000033A,false,Rx,0,3,1E,03,78,00,00,00,00,00,
-1789523002339355,00000332,false,Rx,0,3,1E,03,78,00,00,00,00,00,
-1789523002338758,0000032A,false,Rx,0,3,1E,03,78,00,00,00,00,00,
-1789523002338161,00000322,false,Rx,0,3,1E,03,78,00,00,00,00,00,
-1789523002337606,00000352,false,Rx,0,3,1E,03,78,00,00,00,00,00,
-1789523002337009,0000035A,false,Rx,0,3,1E,03,78,00,00,00,00,00,
-1789523002263483,00000102,false,Rx,0,8,00,00,64,66,60,63,7B,00,
-1789523002262502,00000104,false,Rx,0,8,04,7F,00,7F,00,2C,0F,00,
-1789523002261521,0000010E,false,Rx,0,8,00,00,00,00,00,00,00,00,
-1789523002257425,00000288,false,Rx,0,5,06,10,FF,FF,FF,00,00,00,
-1789523002256486,00000288,false,Rx,0,4,08,00,00,00,00,00,00,00,
-1789523002157416,00000288,false,Rx,0,5,06,10,FF,FF,FF,00,00,00,
-1789523002156477,00000102,false,Rx,0,8,00,00,64,66,60,64,7B,00,
-1789523002155496,00000104,false,Rx,0,8,04,7F,00,7F,00,2D,0F,00,
-1789523002154514,0000010E,false,Rx,0,8,00,00,00,00,00,00,00,00,
-1789523002153832,00000288,false,Rx,0,4,08,00,00,00,00,00,00,00,
-1789523002106643,0000010A,false,Rx,0,5,00,00,64,00,00,00,00,00,
-1789523002105918,0000010C,false,Rx,0,3,00,00,00,00,00,00,00,00,
-1789523002075497,00000280,false,Rx,0,8,14,BB,5C,5D,01,89,9C,00,
-1789523002074345,00000280,false,Rx,0,8,04,4E,F8,00,00,00,00,00,
-1789523002063508,00000102,false,Rx,0,8,00,00,64,66,60,64,7B,00,
-1789523002062526,00000104,false,Rx,0,8,04,7F,00,7F,00,2E,0F,00,
-1789523002061545,0000010E,false,Rx,0,8,00,00,00,00,00,00,00,00,
-1789523002057407,00000288,false,Rx,0,5,06,10,FF,FF,FF,00,00,00,
-1789523002056511,00000288,false,Rx,0,4,08,00,00,00,00,00,00,00,
-1789523001993322,00000380,false,Rx,0,6,09,35,00,00,1B,04,00,00,
-1789523001982016,00000280,false,Rx,0,8,14,BB,5C,5D,01,89,9C,00,
-1789523001981162,00000280,false,Rx,0,5,10,5C,5D,39,03,00,00,00,
-1789523001963712,00000102,false,Rx,0,8,00,00,64,66,60,63,7B,00,
-1789523001962731,00000104,false,Rx,0,8,04,7F,00,7F,00,2F,10,00,
-1789523001961749,0000010E,false,Rx,0,8,00,00,00,00,00,00,00,00,
-1789523001957397,00000288,false,Rx,0,5,06,20,FF,FF,FF,00,00,00,
-1789523001956501,00000288,false,Rx,0,4,08,00,00,00,00,00,00,00,
-1789523001881196,00000280,false,Rx,0,8,14,BB,5C,5D,01,88,9C,03,
-1789523001880001,00000280,false,Rx,0,8,04,4E,F8,00,00,00,00,00,
-1789523001863490,00000102,false,Rx,0,8,00,00,64,66,60,63,7C,00,
-1789523001862508,00000104,false,Rx,0,8,04,7F,00,7F,00,20,10,00,
-1789523001861527,0000010E,false,Rx,0,8,00,00,00,00,00,00,00,00,
-1789523001857431,00000288,false,Rx,0,5,06,10,FF,FF,FF,00,00,00,
-1789523001856492,00000288,false,Rx,0,4,08,00,00,00,00,00,00,00,
-1789523001780419,00000280,false,Rx,0,8,14,BB,5C,5D,01,88,9C,03,
-1789523001779267,00000280,false,Rx,0,8,04,4E,F8,00,00,00,00,00,
-1789523001772483,00000380,false,Rx,0,7,02,00,12,00,00,00,0C,00,
-1789523001763736,00000102,false,Rx,0,8,00,00,64,66,60,63,7C,00,
-1789523001762755,00000104,false,Rx,0,8,04,7F,00,7F,00,21,0F,00,
-1789523001761774,0000010E,false,Rx,0,8,00,00,00,00,00,00,00,00,
-1789523001757422,00000288,false,Rx,0,5,06,10,FF,FF,FF,00,00,00,
-1789523001756526,00000288,false,Rx,0,4,08,00,00,00,00,00,00,00,
-1789523001687407,00000320,false,Rx,0,8,20,00,32,7D,37,7D,3C,7D,
-1789523001686426,00000320,false,Rx,0,8,20,01,41,7D,41,7D,3C,7D,
-1789523001685487,00000322,false,Rx,0,8,20,02,45,7D,45,7D,55,7C,
-1789523001684506,0000008C,false,Rx,0,8,00,21,00,21,00,3A,02,00,
-1789523001683524,000000BC,false,Rx,0,8,80,20,80,20,00,3D,02,00,
-1789523001682586,00000328,false,Rx,0,8,20,01,45,7D,4A,7D,41,7D,
-1789523001682116,00000180,false,Rx,0,1,01,00,00,00,00,00,00,00,
-1789523001681178,00000330,false,Rx,0,8,20,00,4A,7D,45,7D,37,7D,
-1789523001680196,0000032A,false,Rx,0,8,20,02,37,7D,41,7D,45,7D,
-1789523001679258,00000280,false,Rx,0,8,14,BB,5C,5D,01,88,9C,03,
-1789523001678362,00000328,false,Rx,0,8,20,00,45,7D,37,7D,4F,7D,
-1789523001677338,00000280,false,Rx,0,8,04,4E,F8,00,00,00,00,00,
-1789523001676399,00000330,false,Rx,0,8,20,01,37,7D,41,7D,3C,7D,
-1789523001675418,00000332,false,Rx,0,8,20,02,41,7D,41,7D,41,7D,
-1789523001663557,00000102,false,Rx,0,8,00,00,64,66,60,63,7B,00,
-1789523001662575,00000104,false,Rx,0,8,04,7F,00,7F,00,22,10,00,
-1789523001661594,0000010E,false,Rx,0,8,00,00,00,00,00,00,00,00,
-1789523001657413,00000288,false,Rx,0,5,06,10,FF,FF,FF,00,00,00,
-1789523001656517,00000288,false,Rx,0,4,08,00,00,00,00,00,00,00,
-1789523001578822,00000280,false,Rx,0,8,14,BB,5C,5D,01,89,9C,00,
-1789523001577670,00000280,false,Rx,0,8,04,4E,F8,00,00,00,00,00,
-1789523001563718,00000102,false,Rx,0,8,00,00,64,66,60,63,7B,00,
-1789523001562780,00000104,false,Rx,0,8,04,7F,00,7F,00,23,0F,00,
-1789523001561756,0000010E,false,Rx,0,8,00,00,00,00,00,00,00,00,
-1789523001557404,00000288,false,Rx,0,5,06,FF,FE,FF,FF,00,00,00,
-1789523001556508,00000288,false,Rx,0,4,08,00,00,00,00,00,00,00,
-1789523001478045,00000280,false,Rx,0,8,14,BB,5C,5D,01,88,9C,03,
-1789523001476978,00000280,false,Rx,0,8,04,4E,F8,00,00,00,00,00,
-1789523001463581,00000102,false,Rx,0,8,00,00,64,66,60,63,7B,00,
-1789523001462600,00000104,false,Rx,0,8,04,7F,00,7F,00,24,10,00,
-1789523001461619,0000010E,false,Rx,0,8,00,00,00,00,00,00,00,00,
-1789523001457395,00000288,false,Rx,0,5,06,FF,FE,FF,FF,00,00,00,
-1789523001456243,00000288,false,Rx,0,8,04,00,2A,BA,3D,96,0D,00,
-1789523001455347,00000288,false,Rx,0,7,04,01,19,5E,C3,F2,2E,00,
-1789523001454237,00000288,false,Rx,0,8,04,02,57,0B,2A,2F,0E,00,
-1789523001453341,00000288,false,Rx,0,7,04,03,9B,FE,71,15,2E,00,
-1789523001452488,00000288,false,Rx,0,4,08,00,00,00,00,00,00,00,
-1789523001377183,00000280,false,Rx,0,8,14,BB,5C,5D,01,89,9D,00,
-1789523001376116,00000280,false,Rx,0,8,04,4E,F8,00,00,00,00,00,
-1789523001374879,00000006,false,Rx,0,4,25,00,00,00,00,00,00,00,
-1789523001363743,00000102,false,Rx,0,8,00,00,64,66,60,63,7B,00,
-1789523001362761,00000104,false,Rx,0,8,04,7F,00,7F,00,25,0F,00,
-1789523001361780,0000010E,false,Rx,0,8,00,00,00,00,00,00,00,00,
-1789523001357385,00000288,false,Rx,0,5,06,FF,FE,FF,FF,00,00,00,
-1789523001356490,00000288,false,Rx,0,4,08,00,00,00,00,00,00,00,
-1789523001276540,00000280,false,Rx,0,8,14,BB,5C,5D,01,89,9C,00,
-1789523001275644,00000280,false,Rx,0,5,06,21,07,C0,19,00,00,00,
-1789523001263783,00000102,false,Rx,0,8,00,00,64,66,60,63,7B,00,
-1789523001262844,00000104,false,Rx,0,8,04,7F,00,7F,00,26,0F,00,
-1789523001261863,0000010E,false,Rx,0,8,00,00,00,00,00,00,00,00,
-1789523001257511,00000288,false,Rx,0,5,06,10,FF,FF,FF,00,00,00,
-1789523001256615,00000288,false,Rx,0,4,08,00,00,00,00,00,00,00,
-1789523001175720,00000280,false,Rx,0,8,14,BB,5C,5D,01,88,9D,03,
-1789523001174654,00000280,false,Rx,0,8,04,4E,F8,00,00,00,00,00,
-1789523001163859,00000102,false,Rx,0,8,00,00,64,66,60,63,7B,00,
-1789523001162878,00000104,false,Rx,0,8,04,7F,00,7F,00,27,10,00,
-1789523001161897,0000010E,false,Rx,0,8,00,00,00,00,00,00,00,00,
-1789523001157502,00000288,false,Rx,0,5,06,10,FF,FF,FF,00,00,00,
-1789523001156606,00000288,false,Rx,0,4,08,00,00,00,00,00,00,00,
-1789523001095508,0000010A,false,Rx,0,5,00,00,64,00,00,00,00,00,
-1789523001094783,0000010C,false,Rx,0,3,00,00,00,00,00,00,00,00,
-1789523001074901,00000280,false,Rx,0,8,14,BB,5C,5D,01,89,9D,00,
-1789523001073749,00000280,false,Rx,0,8,04,4E,F8,00,00,00,00,00,
-1789523001063722,00000102,false,Rx,0,8,00,00,64,66,60,63,7C,00,
-1789523001062698,00000104,false,Rx,0,8,04,7F,00,7F,00,28,10,00,
-1789523001061717,0000010E,false,Rx,0,8,00,00,00,00,00,00,00,00,
-1789523001057493,00000288,false,Rx,0,5,06,10,FF,FF,FF,00,00,00,
-1789523001056597,00000288,false,Rx,0,4,08,00,00,00,00,00,00,00,
-1789523001022165,00000308,false,Rx,0,8,20,00,45,7D,45,7D,3C,7D,
-1789523001021227,00000308,false,Rx,0,8,20,01,1F,7D,37,7D,45,7D,
-1789523001020288,0000030A,false,Rx,0,8,20,02,45,7D,4A,7D,3C,7D,
-1789523001019477,000000C0,false,Rx,0,6,37,7D,00,45,7D,08,00,00,
-1789523001018667,00000090,false,Rx,0,6,32,7D,05,41,7D,03,00,00,
-1789523001017685,00000310,false,Rx,0,8,20,01,41,7D,3C,7D,32,7D,
-1789523001016747,00000318,false,Rx,0,8,20,00,37,7D,41,7D,3C,7D,
-1789523001015808,00000312,false,Rx,0,8,20,02,32,7D,32,7D,41,7D,
-1789523001014827,00000310,false,Rx,0,8,20,00,37,7D,3C,7D,37,7D,
-1789523001013888,00000318,false,Rx,0,8,20,01,41,7D,45,7D,41,7D,
-1789523001012950,0000031A,false,Rx,0,8,20,02,41,7D,4A,7D,32,7D,
-1789523000990337,00000380,false,Rx,0,6,09,35,00,00,1B,04,00,00,
-1789523000974123,00000280,false,Rx,0,8,14,BB,5C,5D,01,88,9D,03,
-1789523000973355,00000280,false,Rx,0,5,10,5C,5D,39,03,00,00,00,
-1789523000963628,00000102,false,Rx,0,8,00,00,64,66,60,63,7B,00,
-1789523000962646,00000104,false,Rx,0,8,04,7F,00,7F,00,29,10,00,
-1789523000961665,0000010E,false,Rx,0,8,00,00,00,00,00,00,00,00,
-1789523000957526,00000288,false,Rx,0,5,06,10,FF,FF,FF,00,00,00,
-1789523000956588,00000288,false,Rx,0,4,08,00,00,00,00,00,00,00,
-1789523000873304,00000280,false,Rx,0,8,14,BB,5C,5D,01,89,9D,00,
-1789523000872152,00000280,false,Rx,0,8,04,4E,F8,00,00,00,00,00,
-1789523000863832,00000102,false,Rx,0,8,00,00,64,66,60,63,7B,00,
-1789523000862851,00000104,false,Rx,0,8,04,7F,00,7F,00,2A,10,00,
-1789523000861869,0000010E,false,Rx,0,8,00,00,00,00,00,00,00,00,
-1789523000857517,00000288,false,Rx,0,5,06,20,FF,FF,FF,00,00,00,
-1789523000856621,00000288,false,Rx,0,4,08,00,00,00,00,00,00,00,
-1789523000772527,00000280,false,Rx,0,8,14,BB,5C,5D,01,88,9D,03,
-1789523000771460,00000280,false,Rx,0,8,04,4E,F8,00,00,00,00,00,
-1789523000769540,00000380,false,Rx,0,7,02,00,12,00,00,00,10,00,
-1789523000763652,00000102,false,Rx,0,8,00,00,64,66,60,63,7B,00,
-1789523000762713,00000104,false,Rx,0,8,04,7F,00,7F,00,2B,0F,00,
-1789523000761732,0000010E,false,Rx,0,8,00,00,00,00,00,00,00,00,
-1789523000757508,00000288,false,Rx,0,5,06,FF,FE,FF,FF,00,00,00,
-1789523000756612,00000288,false,Rx,0,4,08,00,00,00,00,00,00,00,
-1789523000671707,00000280,false,Rx,0,8,14,BB,5C,5D,01,88,9C,03,
-1789523000670512,00000280,false,Rx,0,8,04,4E,F8,00,00,00,00,00,
-1789523000663686,00000102,false,Rx,0,8,00,00,64,66,60,63,7B,00,
-1789523000662704,00000104,false,Rx,0,8,04,7F,00,7F,00,2C,10,00,
-1789523000661723,0000010E,false,Rx,0,8,00,00,00,00,00,00,00,00,
-1789523000657542,00000288,false,Rx,0,5,06,10,FF,FF,FF,00,00,00,
-1789523000656603,00000288,false,Rx,0,4,08,00,00,00,00,00,00,00,
-1789523000570930,00000280,false,Rx,0,8,14,BB,5C,5D,01,89,9D,00,
-1789523000569778,00000280,false,Rx,0,8,04,4E,F8,00,00,00,00,00,
-1789523000563847,00000102,false,Rx,0,8,00,00,64,66,60,63,7B,00,
-1789523000562866,00000104,false,Rx,0,8,04,7F,00,7F,00,2D,0F,00,
-1789523000561885,0000010E,false,Rx,0,8,00,00,00,00,00,00,00,00,
-1789523000557490,00000288,false,Rx,0,5,06,FF,FE,FF,FF,00,00,00,
-1789523000556594,00000288,false,Rx,0,4,08,00,00,00,00,00,00,00,
-1789523000470110,00000280,false,Rx,0,8,14,BB,5C,5D,01,89,9C,00,
-1789523000469001,00000280,false,Rx,0,8,04,4E,F8,00,00,00,00,00,
-1789523000463710,00000102,false,Rx,0,8,00,00,64,66,60,63,7B,00,
-1789523000462729,00000104,false,Rx,0,8,04,7F,00,7F,00,2E,0F,00,
-1789523000461747,0000010E,false,Rx,0,8,00,00,00,00,00,00,00,00,
-1789523000457524,00000288,false,Rx,0,5,06,FF,FE,FF,FF,00,00,00,
-1789523000456329,00000288,false,Rx,0,8,04,00,2B,BA,3D,96,0D,00,
-1789523000455433,00000288,false,Rx,0,7,04,01,19,5E,C3,F2,2E,00,
-1789523000454366,00000288,false,Rx,0,8,04,02,80,0C,2A,2F,0E,00,
-1789523000453428,00000288,false,Rx,0,7,04,03,50,02,72,15,2E,00,
-1789523000452617,00000288,false,Rx,0,4,08,00,00,00,00,00,00,00,
-1789523000369333,00000280,false,Rx,0,8,14,BB,5C,5D,01,88,9D,03,
-1789523000368266,00000280,false,Rx,0,8,04,4E,F8,00,00,00,00,00,
-1789523000363658,00000102,false,Rx,0,8,00,00,64,66,60,64,7C,00,
-1789523000362677,00000104,false,Rx,0,8,04,7F,00,7F,00,2F,11,00,
-1789523000361696,0000010E,false,Rx,0,8,00,00,00,00,00,00,00,00,
-1789523000357514,00000288,false,Rx,0,5,06,10,FF,FF,FF,00,00,00,
-1789523000356576,00000320,false,Rx,0,8,20,00,32,7D,32,7D,3C,7D,
-1789523000355893,00000006,false,Rx,0,4,25,00,00,00,00,00,00,00,
-1789523000355168,00000288,false,Rx,0,4,08,00,00,00,00,00,00,00,
-1789523000354229,00000320,false,Rx,0,8,20,01,41,7D,41,7D,41,7D,
-1789523000353291,000000C2,false,Rx,0,8,32,7D,45,7D,07,67,04,85,
-1789523000352352,00000092,false,Rx,0,8,32,7D,41,7D,03,67,04,15,
-1789523000351371,00000322,false,Rx,0,8,20,02,4A,7D,4A,7D,55,7C,
-1789523000350432,0000032A,false,Rx,0,8,20,02,37,7D,3C,7D,4A,7D,
-1789523000349493,00000330,false,Rx,0,8,20,00,4A,7D,45,7D,37,7D,
-1789523000348555,00000328,false,Rx,0,8,20,01,45,7D,4F,7D,3C,7D,
-1789523000347616,00000328,false,Rx,0,8,20,00,45,7D,37,7D,54,7D,
-1789523000346677,00000330,false,Rx,0,8,20,01,37,7D,41,7D,41,7D,
-1789523000345696,00000332,false,Rx,0,8,20,02,41,7D,41,7D,3C,7D,
-1789523000268483,00000280,false,Rx,0,8,14,BB,5C,5D,01,88,9C,03,
-1789523000267459,00000280,false,Rx,0,8,04,4E,F8,00,00,00,00,00,
-1789523000263833,00000102,false,Rx,0,8,00,00,64,66,60,63,7B,00,
-1789523000262851,00000104,false,Rx,0,8,04,7F,00,7F,00,20,0F,00,
-1789523000261870,0000010E,false,Rx,0,8,00,00,00,00,00,00,00,00,
-1789523000257475,00000288,false,Rx,0,5,06,10,FF,FF,FF,00,00,00,
-1789523000256579,00000288,false,Rx,0,4,08,00,00,00,00,00,00,00,
-1789523000167706,00000280,false,Rx,0,8,14,BB,5C,5D,01,89,9C,00,
-1789523000166853,00000280,false,Rx,0,5,06,21,07,C0,19,00,00,00,
-1789523000163823,00000102,false,Rx,0,8,00,00,64,66,60,63,7B,00,
-1789523000162885,00000104,false,Rx,0,8,04,7F,00,7F,00,21,10,00,
-1789523000161904,0000010E,false,Rx,0,8,00,00,00,00,00,00,00,00,
-1789523000157509,00000288,false,Rx,0,5,06,10,FF,FF,FF,00,00,00,
-1789523000156570,00000288,false,Rx,0,4,08,00,00,00,00,00,00,00,
-1789523000085190,0000010A,false,Rx,0,5,00,00,64,00,00,00,00,00,
-1789523000084465,0000010C,false,Rx,0,3,00,00,00,00,00,00,00,00,
-1789523000066886,00000280,false,Rx,0,8,14,BB,5C,5D,01,88,9C,03,
-1789523000065734,00000280,false,Rx,0,8,04,4E,F8,00,00,00,00,00,
-1789523000063857,00000102,false,Rx,0,8,00,00,64,66,60,63,7B,00,
-1789523000062876,00000104,false,Rx,0,8,04,7F,00,7F,00,22,0F,00,
-1789523000061852,0000010E,false,Rx,0,8,00,00,00,00,00,00,00,00,
-1789523000057500,00000288,false,Rx,0,5,06,10,FF,FF,FF,00,00,00,
-1789523000056561,00000288,false,Rx,0,4,08,00,00,00,00,00,00,00,
-1789522999987229,00000380,false,Rx,0,6,09,35,00,00,1B,04,00,00,
-1789522999966109,00000280,false,Rx,0,8,14,BB,5C,5D,01,88,9C,03,
-1789522999965341,00000280,false,Rx,0,5,10,5C,5D,39,03,00,00,00,
-1789522999963720,00000102,false,Rx,0,8,00,00,64,66,60,63,7B,00,
-1789522999962739,00000104,false,Rx,0,8,04,7F,00,7F,00,23,0F,00,
-1789522999961757,0000010E,false,Rx,0,8,00,00,00,00,00,00,00,00,
-1789522999957491,00000288,false,Rx,0,5,06,10,FF,FF,FF,00,00,00,
-1789522999956595,00000288,false,Rx,0,4,08,00,00,00,00,00,00,00,
-1789522999865289,00000280,false,Rx,0,8,14,BB,5C,5D,01,89,9C,00,
-1789522999864137,00000280,false,Rx,0,8,04,4E,F8,00,00,00,00,00,
-1789522999863199,00000102,false,Rx,0,8,00,00,64,66,60,63,7C,00,
-1789522999862218,00000104,false,Rx,0,8,04,7F,00,7F,00,24,10,00,
-1789522999861236,0000010E,false,Rx,0,8,00,00,00,00,00,00,00,00,
-1789522999857482,00000288,false,Rx,0,5,06,10,FF,FF,FF,00,00,00,
-1789522999856586,00000288,false,Rx,0,4,08,00,00,00,00,00,00,00,
-1789522999766432,00000380,false,Rx,0,7,02,00,12,00,00,00,14,00,
-1789522999764512,00000280,false,Rx,0,8,14,BB,5C,5D,01,88,9C,03,
-1789522999763574,00000102,false,Rx,0,8,00,00,64,66,60,63,7C,00,
-1789522999762592,00000104,false,Rx,0,8,04,7F,00,7F,00,25,0F,00,
-1789522999761611,0000010E,false,Rx,0,8,00,00,00,00,00,00,00,00,
-1789522999760630,00000280,false,Rx,0,8,04,4E,F8,00,00,00,00,00,
-1789522999757515,00000288,false,Rx,0,5,06,10,FF,FF,FF,00,00,00,
-1789522999756577,00000288,false,Rx,0,4,08,00,00,00,00,00,00,00,
-1789522999691426,00000308,false,Rx,0,8,20,00,45,7D,45,7D,41,7D,
-1789522999690487,00000308,false,Rx,0,8,20,01,1B,7D,3C,7D,4A,7D,
-1789522999689548,0000030A,false,Rx,0,8,20,02,45,7D,45,7D,41,7D,
-1789522999688567,00000094,false,Rx,0,8,80,20,00,21,80,3B,02,03,
-1789522999687586,000000C4,false,Rx,0,8,00,1F,00,1F,00,46,02,00,
-1789522999686647,00000312,false,Rx,0,8,20,02,2E,7D,37,7D,41,7D,
-1789522999685666,00000318,false,Rx,0,8,20,00,37,7D,41,7D,41,7D,
-1789522999684727,00000310,false,Rx,0,8,20,01,41,7D,37,7D,37,7D,
-1789522999683746,00000310,false,Rx,0,8,20,00,37,7D,41,7D,37,7D,
-1789522999682764,00000318,false,Rx,0,8,20,01,41,7D,45,7D,41,7D,
-1789522999681826,0000031A,false,Rx,0,8,20,02,41,7D,4A,7D,37,7D,
-1789522999663735,00000102,false,Rx,0,8,00,00,64,66,60,63,7B,00,
-1789522999662797,00000104,false,Rx,0,8,04,7F,00,7F,00,26,10,00,
-1789522999661773,0000010E,false,Rx,0,8,00,00,00,00,00,00,00,00,
-1789522999660834,00000280,false,Rx,0,8,14,BB,5C,5D,01,89,9C,00,
-1789522999659725,00000280,false,Rx,0,8,04,4E,F8,00,00,00,00,00,
-1789522999657506,00000288,false,Rx,0,5,06,10,FF,FF,FF,00,00,00,
-1789522999656567,00000288,false,Rx,0,4,08,00,00,00,00,00,00,00,
-1789522999563769,00000102,false,Rx,0,8,00,00,64,66,60,63,7B,00,
-1789522999562788,00000104,false,Rx,0,8,04,7F,00,7F,00,27,0F,00,
-1789522999561806,0000010E,false,Rx,0,8,00,00,00,00,00,00,00,00,
-1789522999560868,00000280,false,Rx,0,8,14,BB,5C,5D,01,88,9C,03,
-1789522999559716,00000280,false,Rx,0,8,04,4E,F8,00,00,00,00,00,
-1789522999557497,00000288,false,Rx,0,5,06,10,FF,FF,FF,00,00,00,
-1789522999556558,00000288,false,Rx,0,4,08,00,00,00,00,00,00,00,
-1789522999463632,00000102,false,Rx,0,8,00,00,64,66,60,63,7C,00,
-1789522999462650,00000104,false,Rx,0,8,04,7F,00,7F,00,28,10,00,
-1789522999461669,0000010E,false,Rx,0,8,00,00,00,00,00,00,00,00,
-1789522999460730,00000280,false,Rx,0,8,14,BB,5C,5D,01,89,9C,00,
-1789522999459621,00000280,false,Rx,0,8,04,4E,F8,00,00,00,00,00,
-1789522999457488,00000288,false,Rx,0,5,06,10,FF,FF,FF,00,00,00,
-1789522999456336,00000288,false,Rx,0,8,04,00,2C,BA,3D,96,0D,00,
-1789522999455397,00000288,false,Rx,0,7,04,01,19,5E,C3,F2,2E,00,
-1789522999454331,00000288,false,Rx,0,8,04,02,AD,0D,2A,2F,0E,00,
-1789522999453435,00000288,false,Rx,0,7,04,03,13,06,72,15,2E,00,
-1789522999452581,00000288,false,Rx,0,4,08,00,00,00,00,00,00,00,
-1789522999425403,00000006,false,Rx,0,3,1E,03,78,00,00,00,00,00,
-1789522999363751,00000102,false,Rx,0,8,00,00,64,66,60,63,7B,00,
-1789522999362727,00000104,false,Rx,0,8,04,7F,00,7F,00,29,10,00,
-1789522999361788,0000010E,false,Rx,0,8,00,00,00,00,00,00,00,00,
-1789522999360849,00000280,false,Rx,0,8,14,BB,5C,5D,01,88,9C,03,
-1789522999359740,00000280,false,Rx,0,8,04,4E,F8,00,00,00,00,00,
-1789522999357521,00000288,false,Rx,0,5,06,10,FF,FF,FF,00,00,00,
-1789522999356583,00000288,false,Rx,0,4,08,00,00,00,00,00,00,00,
-1789522999263732,00000102,false,Rx,0,8,00,00,64,66,60,63,7B,00,
-1789522999262751,00000104,false,Rx,0,8,04,7F,00,7F,00,2A,0F,00,
-1789522999261769,0000010E,false,Rx,0,8,00,00,00,00,00,00,00,00,
-1789522999260575,00000280,false,Rx,0,8,14,BB,5C,5D,01,89,9C,00,
-1789522999259423,00000280,false,Rx,0,8,04,4E,F8,00,00,00,00,00,
-1789522999258185,00000006,false,Rx,0,4,25,00,00,00,00,00,00,00,
-1789522999257417,00000288,false,Rx,0,5,06,10,FF,FF,FF,00,00,00,
-1789522999256607,00000288,false,Rx,0,4,08,00,00,00,00,00,00,00,
-1789522999163680,00000102,false,Rx,0,8,00,00,64,66,60,63,7B,00,
-1789522999162699,00000104,false,Rx,0,8,04,7F,00,7F,00,2B,10,00,
-1789522999161717,0000010E,false,Rx,0,8,00,00,00,00,00,00,00,00,
-1789522999159755,00000280,false,Rx,0,8,14,BB,5C,5D,01,88,9C,03,
-1789522999158688,00000280,false,Rx,0,8,04,4E,F8,00,00,00,00,00,
-1789522999157494,00000288,false,Rx,0,5,06,FF,FE,FF,FF,00,00,00,
-1789522999156598,00000288,false,Rx,0,4,08,00,00,00,00,00,00,00,
-1789522999075532,0000010A,false,Rx,0,5,00,00,64,00,00,00,00,00,
-1789522999074764,0000010C,false,Rx,0,3,00,00,00,00,00,00,00,00,
-1789522999063756,00000102,false,Rx,0,8,00,00,64,66,60,63,7C,00,
-1789522999062775,00000104,false,Rx,0,8,04,7F,00,7F,00,2C,0F,00,
-1789522999061794,0000010E,false,Rx,0,8,00,00,00,00,00,00,00,00,
-1789522999058978,00000280,false,Rx,0,8,14,BB,5C,5D,01,89,9C,00,
-1789522999058124,00000280,false,Rx,0,5,06,21,07,C0,19,00,00,00,
-1789522999057314,00000288,false,Rx,0,5,06,FF,FE,FF,FF,00,00,00,
-1789522999056631,00000288,false,Rx,0,4,08,00,00,00,00,00,00,00,
-1789522999026722,0000030A,false,Rx,0,3,1E,03,78,00,00,00,00,00,
-1789522999026168,00000312,false,Rx,0,3,1E,03,78,00,00,00,00,00,
-1789522999025186,0000030A,false,Rx,0,8,20,02,41,7D,4A,7D,3C,7D,
-1789522999024248,00000310,false,Rx,0,8,20,01,41,7D,3C,7D,32,7D,
-1789522999023437,000000C8,false,Rx,0,6,37,7D,01,4F,7D,03,00,00,
-1789522999022626,00000098,false,Rx,0,6,37,7D,00,4A,7D,07,00,00,
-1789522999021688,00000318,false,Rx,0,8,20,01,41,7D,45,7D,41,7D,
-1789522999020749,00000318,false,Rx,0,8,20,00,37,7D,45,7D,3C,7D,
-1789522999019810,00000312,false,Rx,0,8,20,02,32,7D,32,7D,3C,7D,
-1789522999018829,00000310,false,Rx,0,8,20,00,3C,7D,41,7D,37,7D,
-1789522999017890,00000308,false,Rx,0,8,20,01,1F,7D,37,7D,45,7D,
-1789522999016952,00000308,false,Rx,0,8,20,00,45,7D,45,7D,3C,7D,
-1789522999015970,0000031A,false,Rx,0,8,20,02,41,7D,4A,7D,37,7D,
-1789522999015416,0000031A,false,Rx,0,3,1E,03,78,00,00,00,00,00,
-1789522999014818,0000034A,false,Rx,0,3,1E,03,78,00,00,00,00,00,
-1789522999014221,00000342,false,Rx,0,3,1E,03,78,00,00,00,00,00,
-1789522999013624,0000033A,false,Rx,0,3,1E,03,78,00,00,00,00,00,
-1789522999013026,00000332,false,Rx,0,3,1E,03,78,00,00,00,00,00,
-1789522999012429,0000032A,false,Rx,0,3,1E,03,78,00,00,00,00,00,
-1789522999011832,00000322,false,Rx,0,3,1E,03,78,00,00,00,00,00,
-1789522999011277,00000352,false,Rx,0,3,1E,03,78,00,00,00,00,00,
-1789522999010680,0000035A,false,Rx,0,3,1E,03,78,00,00,00,00,00,
-1789522998984312,00000380,false,Rx,0,6,09,35,00,00,1B,04,00,00,
-1789522998963705,00000102,false,Rx,0,8,00,00,64,66,60,63,7C,00,
-1789522998962723,00000104,false,Rx,0,8,04,7F,00,7F,00,2D,10,00,
-1789522998961742,0000010E,false,Rx,0,8,00,00,00,00,00,00,00,00,
-1789522998958158,00000280,false,Rx,0,8,14,BB,5C,5D,01,88,9D,03,
-1789522998957390,00000288,false,Rx,0,5,06,FF,FE,FF,FF,00,00,00,
-1789522998956665,00000280,false,Rx,0,5,10,5C,5D,39,03,00,00,00,
-1789522998955939,00000288,false,Rx,0,4,08,00,00,00,00,00,00,00,
-1789522998863738,00000102,false,Rx,0,8,00,00,64,66,60,63,7C,00,
-1789522998862757,00000104,false,Rx,0,8,04,7F,00,7F,00,2E,10,00,
-1789522998861775,0000010E,false,Rx,0,8,00,00,00,00,00,00,00,00,
-1789522998857338,00000280,false,Rx,0,8,14,BB,5C,5D,01,88,9D,03,
-1789522998856570,00000288,false,Rx,0,5,06,FF,FE,FF,FF,00,00,00,
-1789522998855589,00000280,false,Rx,0,8,04,4E,F8,00,00,00,00,00,
-1789522998854906,00000288,false,Rx,0,4,08,00,00,00,00,00,00,00,
-1789522998763729,00000102,false,Rx,0,8,00,00,64,66,60,63,7B,00,
-1789522998762790,00000104,false,Rx,0,8,04,7F,00,7F,00,2F,0F,00,
-1789522998761809,0000010E,false,Rx,0,8,00,00,00,00,00,00,00,00,
-1789522998760870,00000380,false,Rx,0,7,02,00,12,00,00,00,18,00,
-1789522998757542,00000288,false,Rx,0,5,06,10,FF,FF,FF,00,00,00,
-1789522998756518,00000280,false,Rx,0,8,14,BB,5C,5D,01,88,9D,03,
-1789522998755836,00000288,false,Rx,0,4,08,00,00,00,00,00,00,00,
-1789522998754854,00000280,false,Rx,0,8,04,4E,F8,00,00,00,00,00,
-1789522998663720,00000102,false,Rx,0,8,00,00,64,66,60,63,7B,00,
-1789522998662739,00000104,false,Rx,0,8,04,7F,00,7F,00,20,10,00,
-1789522998661757,0000010E,false,Rx,0,8,00,00,00,00,00,00,00,00,
-1789522998657533,00000288,false,Rx,0,5,06,10,FF,FF,FF,00,00,00,
-1789522998656595,00000288,false,Rx,0,4,08,00,00,00,00,00,00,00,
-1789522998655656,00000280,false,Rx,0,8,14,BB,5C,5D,01,89,9C,00,
-1789522998654504,00000280,false,Rx,0,8,04,4E,F8,00,00,00,00,00,
-1789522998563967,00000102,false,Rx,0,8,00,00,64,66,60,63,7B,00,
-1789522998562985,00000104,false,Rx,0,8,04,7F,00,7F,00,21,10,00,
-1789522998562004,0000010E,false,Rx,0,8,00,00,00,00,00,00,00,00,
-1789522998557524,00000288,false,Rx,0,5,06,10,FF,FF,FF,00,00,00,
-1789522998556628,00000288,false,Rx,0,4,08,00,00,00,00,00,00,00,
-1789522998554964,00000280,false,Rx,0,8,14,BB,5C,5D,01,88,9C,03,
-1789522998553812,00000280,false,Rx,0,8,04,4E,F8,00,00,00,00,00,
-1789522998463958,00000102,false,Rx,0,8,00,00,64,66,60,63,7B,00,
-1789522998462976,00000104,false,Rx,0,8,04,7F,00,7F,00,22,10,00,
-1789522998461995,0000010E,false,Rx,0,8,00,00,00,00,00,00,00,00,
-1789522998457558,00000288,false,Rx,0,5,06,10,FF,FF,FF,00,00,00,
-1789522998456363,00000288,false,Rx,0,8,04,00,2D,BA,3D,96,0D,00,
-1789522998455467,00000288,false,Rx,0,7,04,01,19,5E,C3,F2,2E,00,
-1789522998454401,00000288,false,Rx,0,8,04,02,E0,0E,2A,2F,0E,00,
-1789522998453462,00000280,false,Rx,0,8,14,BB,5C,5D,01,88,9C,03,
-1789522998452566,00000288,false,Rx,0,7,04,03,E8,09,72,15,2E,00,
-1789522998451585,00000280,false,Rx,0,8,04,4E,F8,00,00,00,00,00,
-1789522998450902,00000288,false,Rx,0,4,08,00,00,00,00,00,00,00,
-1789522998363735,00000102,false,Rx,0,8,00,00,64,66,60,63,7C,00,
-1789522998362754,00000104,false,Rx,0,8,04,7F,00,7F,00,23,0F,00,
-1789522998361773,0000010E,false,Rx,0,8,00,00,00,00,00,00,00,00,
-1789522998360791,00000320,false,Rx,0,8,20,00,32,7D,32,7D,3C,7D,
-1789522998359810,00000320,false,Rx,0,8,20,01,41,7D,41,7D,3C,7D,
-1789522998358914,00000322,false,Rx,0,8,20,02,4A,7D,4A,7D,55,7C,
-1789522998357975,000000CA,false,Rx,0,8,37,7D,4F,7D,74,67,04,31,
-1789522998357037,0000009A,false,Rx,0,8,32,7D,4A,7D,38,67,04,78,
-1789522998356269,00000288,false,Rx,0,5,06,10,FF,FF,FF,00,00,00,
-1789522998355586,00000288,false,Rx,0,4,08,00,00,00,00,00,00,00,
-1789522998354647,00000328,false,Rx,0,8,20,01,45,7D,4F,7D,3C,7D,
-1789522998353709,00000330,false,Rx,0,8,20,00,4A,7D,45,7D,37,7D,
-1789522998352770,00000280,false,Rx,0,8,14,BB,5C,5D,01,88,9C,03,
-1789522998351831,0000032A,false,Rx,0,8,20,02,37,7D,3C,7D,45,7D,
-1789522998350850,00000280,false,Rx,0,8,04,4E,F8,00,00,00,00,00,
-1789522998349911,00000328,false,Rx,0,8,20,00,45,7D,37,7D,54,7D,
-1789522998348930,00000330,false,Rx,0,8,20,01,37,7D,41,7D,41,7D,
-1789522998347949,00000332,false,Rx,0,8,20,02,41,7D,41,7D,41,7D,
-1789522998263974,00000102,false,Rx,0,8,00,00,64,66,60,63,7C,00,
-1789522998262993,00000104,false,Rx,0,8,04,7F,00,7F,00,24,0F,00,
-1789522998262012,0000010E,false,Rx,0,8,00,00,00,00,00,00,00,00,
-1789522998257575,00000288,false,Rx,0,5,06,10,FF,FF,FF,00,00,00,
-1789522998256636,00000288,false,Rx,0,4,08,00,00,00,00,00,00,00,
-1789522998255953,00000006,false,Rx,0,4,25,00,00,00,00,00,00,00,
-1789522998252583,00000280,false,Rx,0,8,14,BB,5C,5D,01,89,9D,00,
-1789522998251431,00000280,false,Rx,0,8,04,4E,F8,00,00,00,00,00,
-1789522998163752,00000102,false,Rx,0,8,00,00,64,66,60,63,7C,00,
-1789522998162813,00000104,false,Rx,0,8,04,7F,00,7F,00,25,10,00,
-1789522998161789,0000010E,false,Rx,0,8,00,00,00,00,00,00,00,00,
-1789522998157565,00000288,false,Rx,0,5,06,10,FF,FF,FF,00,00,00,
-1789522998156670,00000288,false,Rx,0,4,08,00,00,00,00,00,00,00,
-1789522998151848,00000280,false,Rx,0,8,14,BB,5C,5D,01,88,9C,03,
-1789522998150696,00000280,false,Rx,0,8,04,4E,F8,00,00,00,00,00,
-1789522998066388,0000010A,false,Rx,0,5,00,00,64,00,00,00,00,00,
-1789522998065663,0000010C,false,Rx,0,3,00,00,00,00,00,00,00,00,
-1789522998063743,00000102,false,Rx,0,8,00,00,64,66,60,63,7B,00,
-1789522998062762,00000104,false,Rx,0,8,04,00,00,7F,00,26,10,00,
-1789522998061780,0000010E,false,Rx,0,8,00,00,00,00,00,00,00,00,
-1789522998057556,00000288,false,Rx,0,5,06,10,FF,FF,FF,00,00,00,
-1789522998056660,00000288,false,Rx,0,4,08,00,00,00,00,00,00,00,
-1789522998050986,00000280,false,Rx,0,8,14,BB,5C,5D,01,88,9D,03,
-1789522998050218,00000280,false,Rx,0,5,06,21,07,C0,19,00,00,00,
-1789522997981270,00000380,false,Rx,0,6,09,35,00,00,1B,04,00,00,
-1789522997963862,00000102,false,Rx,0,8,00,00,64,66,60,63,7B,00,
-1789522997962881,00000104,false,Rx,0,8,04,7F,00,7F,00,27,10,00,
-1789522997961899,0000010E,false,Rx,0,8,00,00,00,00,00,00,00,00,
-1789522997957590,00000288,false,Rx,0,5,06,10,FF,FF,FF,00,00,00,
-1789522997956651,00000288,false,Rx,0,4,08,00,00,00,00,00,00,00,
-1789522997950251,00000280,false,Rx,0,8,14,BB,5C,5D,01,89,9C,00,
-1789522997949185,00000280,false,Rx,0,8,04,4E,F8,00,00,00,00,00,
-1789522997864023,00000102,false,Rx,0,8,00,00,64,66,60,63,7B,00,
-1789522997863042,00000104,false,Rx,0,8,04,7F,00,7F,00,28,0F,00,
-1789522997862018,0000010E,false,Rx,0,8,00,00,00,00,00,00,00,00,
-1789522997857581,00000288,false,Rx,0,5,06,10,FF,FF,FF,00,00,00,
-1789522997856642,00000288,false,Rx,0,4,08,00,00,00,00,00,00,00,
-1789522997849389,00000280,false,Rx,0,8,14,BB,5C,5D,01,89,9C,00,
-1789522997848536,00000280,false,Rx,0,5,10,5C,5D,39,03,00,00,00,
-1789522997763886,00000102,false,Rx,0,8,00,00,64,66,60,63,7B,00,
-1789522997762905,00000104,false,Rx,0,8,04,7F,00,7F,00,29,0F,00,
-1789522997761924,0000010E,false,Rx,0,8,00,00,00,00,00,00,00,00,
-1789522997760430,00000380,false,Rx,0,7,02,00,12,00,00,00,1C,00,
-1789522997757572,00000288,false,Rx,0,5,06,10,FF,FF,FF,00,00,00,
-1789522997756633,00000288,false,Rx,0,4,08,00,00,00,00,00,00,00,
-1789522997748612,00000280,false,Rx,0,8,14,BB,5C,5D,01,89,9C,00,
-1789522997747460,00000280,false,Rx,0,8,04,4E,F8,00,00,00,00,00,
-1789522997695493,00000308,false,Rx,0,8,20,00,45,7D,45,7D,41,7D,
-1789522997694511,00000308,false,Rx,0,8,20,01,1B,7D,3C,7D,45,7D,
-1789522997693573,0000030A,false,Rx,0,8,20,02,45,7D,45,7D,3C,7D,
-1789522997692634,0000009C,false,Rx,0,8,80,20,80,20,80,3C,02,00,
-1789522997691653,000000CC,false,Rx,0,8,00,1F,80,20,00,40,02,20,
-1789522997690714,00000312,false,Rx,0,8,20,02,2E,7D,37,7D,3C,7D,
-1789522997689733,00000318,false,Rx,0,8,20,00,37,7D,41,7D,41,7D,
-1789522997688794,00000310,false,Rx,0,8,20,01,41,7D,37,7D,37,7D,
-1789522997687813,00000310,false,Rx,0,8,20,00,37,7D,41,7D,37,7D,
-1789522997686874,00000318,false,Rx,0,8,20,01,41,7D,45,7D,41,7D,
-1789522997685893,0000031A,false,Rx,0,8,20,02,41,7D,4A,7D,37,7D,
-1789522997657691,00000102,false,Rx,0,8,00,00,64,66,60,63,7B,00,
-1789522997656752,00000104,false,Rx,0,8,04,7F,00,7F,00,2A,10,00,
-1789522997655728,0000010E,false,Rx,0,8,00,00,00,00,00,00,00,00,
-1789522997655003,00000288,false,Rx,0,5,06,FF,FE,FF,FF,00,00,00,
-1789522997654277,00000288,false,Rx,0,4,08,00,00,00,00,00,00,00,
-1789522997647792,00000280,false,Rx,0,8,14,BB,5C,5D,01,89,9D,00,
-1789522997646640,00000280,false,Rx,0,8,04,4E,F8,00,00,00,00,00,
-1789522997563825,00000102,false,Rx,0,8,00,00,64,66,60,63,7B,00,
-1789522997562844,00000104,false,Rx,0,8,04,7F,00,7F,00,2B,0F,00,
-1789522997561863,0000010E,false,Rx,0,8,00,00,00,00,00,00,00,00,
-1789522997557554,00000288,false,Rx,0,5,06,FF,FE,FF,FF,00,00,00,
-1789522997556658,00000288,false,Rx,0,4,08,00,00,00,00,00,00,00,
-1789522997547015,00000280,false,Rx,0,8,14,BB,5C,5D,01,88,9D,03,
-1789522997545948,00000280,false,Rx,0,8,04,4E,F8,00,00,00,00,00,
-1789522997464030,00000102,false,Rx,0,8,00,00,64,66,60,63,7B,00,
-1789522997463048,00000104,false,Rx,0,8,04,7F,00,7F,00,2C,0F,00,
-1789522997462067,0000010E,false,Rx,0,8,00,00,00,00,00,00,00,00,
-1789522997457544,00000288,false,Rx,0,5,06,FF,FE,FF,FF,00,00,00,
-1789522997456392,00000288,false,Rx,0,8,04,00,2E,BA,3D,96,0D,00,
-1789522997455496,00000288,false,Rx,0,7,04,01,19,5E,C3,F2,2E,00,
-1789522997454430,00000288,false,Rx,0,8,04,02,11,10,2A,2F,0E,00,
-1789522997453491,00000288,false,Rx,0,7,04,03,B7,0D,72,15,2E,00,
-1789522997452681,00000288,false,Rx,0,4,08,00,00,00,00,00,00,00,
-1789522997446238,00000280,false,Rx,0,8,14,BB,5C,5D,01,89,9C,00,
-1789522997445086,00000280,false,Rx,0,8,04,4E,F8,00,00,00,00,00,
-1789522997363850,00000102,false,Rx,0,8,00,00,64,66,60,63,7B,00,
-1789522997362911,00000104,false,Rx,0,8,04,7F,00,7F,00,2D,10,00,
-1789522997361887,0000010E,false,Rx,0,8,00,00,00,00,00,00,00,00,
-1789522997357578,00000288,false,Rx,0,5,06,FF,FE,FF,FF,00,00,00,
-1789522997356639,00000288,false,Rx,0,4,08,00,00,00,00,00,00,00,
-1789522997345418,00000280,false,Rx,0,8,14,BB,5C,5D,01,89,9C,00,
-1789522997344266,00000280,false,Rx,0,8,04,4E,F8,00,00,00,00,00,
-1789522997263815,00000102,false,Rx,0,8,00,00,64,66,60,63,7C,00,
-1789522997262834,00000104,false,Rx,0,8,04,7F,00,7F,00,2E,10,00,
-1789522997261895,0000010E,false,Rx,0,8,00,00,00,00,00,00,00,00,
-1789522997257586,00000288,false,Rx,0,5,06,FF,FE,FF,FF,00,00,00,
-1789522997256690,00000288,false,Rx,0,4,08,00,00,00,00,00,00,00,
-1789522997244573,00000280,false,Rx,0,8,14,BB,5C,5D,01,89,9C,00,
-1789522997243463,00000280,false,Rx,0,8,04,4E,F8,00,00,00,00,00,
-1789522997164062,00000102,false,Rx,0,8,00,00,64,66,60,63,7B,00,
-1789522997163081,00000104,false,Rx,0,8,04,7F,00,7F,00,2F,10,00,
-1789522997162057,0000010E,false,Rx,0,8,00,00,00,00,00,00,00,00,
-1789522997157577,00000288,false,Rx,0,5,06,10,FF,FF,FF,00,00,00,
-1789522997156681,00000288,false,Rx,0,4,08,00,00,00,00,00,00,00,
-1789522997154377,00000006,false,Rx,0,4,25,00,00,00,00,00,00,00,
-1789522997143838,00000280,false,Rx,0,8,14,BB,5C,5D,01,88,9D,03,
-1789522997142772,00000280,false,Rx,0,8,04,4E,F8,00,00,00,00,00,
-1789522997063925,00000102,false,Rx,0,8,00,00,64,66,60,63,7B,00,
-1789522997062986,00000104,false,Rx,0,8,04,7F,00,7F,00,20,0F,00,
-1789522997061962,0000010E,false,Rx,0,8,00,00,00,00,00,00,00,00,
-1789522997057568,00000288,false,Rx,0,5,06,FF,FE,FF,FF,00,00,00,
-1789522997056672,00000288,false,Rx,0,4,08,00,00,00,00,00,00,00,
-1789522997053386,0000010A,false,Rx,0,5,00,00,64,00,00,00,00,00,
-1789522997052704,0000010C,false,Rx,0,3,00,00,00,00,00,00,00,00,
-1789522997043019,00000280,false,Rx,0,8,14,BB,5C,5D,01,89,9C,00,
-1789522997042165,00000280,false,Rx,0,5,06,21,07,C0,19,00,00,00,
-1789522997030176,00000308,false,Rx,0,8,20,00,45,7D,45,7D,3C,7D,
-1789522997029237,00000308,false,Rx,0,8,20,01,1F,7D,37,7D,4A,7D,
-1789522997028256,0000030A,false,Rx,0,8,20,02,41,7D,4A,7D,3C,7D,
-1789522997027488,000000D0,false,Rx,0,6,3C,7D,00,4F,7D,08,00,00,
-1789522997026677,000000A0,false,Rx,0,6,55,7C,08,45,7D,06,00,00,
-1789522997025739,00000310,false,Rx,0,8,20,01,41,7D,3C,7D,32,7D,
-1789522997024758,00000318,false,Rx,0,8,20,00,37,7D,41,7D,3C,7D,
-1789522997023819,00000312,false,Rx,0,8,20,02,32,7D,32,7D,3C,7D,
-1789522997022880,00000310,false,Rx,0,8,20,00,37,7D,3C,7D,37,7D,
-1789522997021899,00000318,false,Rx,0,8,20,01,41,7D,45,7D,41,7D,
-1789522997020960,0000031A,false,Rx,0,8,20,02,41,7D,4A,7D,32,7D,
-1789522996978209,00000380,false,Rx,0,6,09,35,00,00,1B,04,00,00,
-1789522996963830,00000102,false,Rx,0,8,00,00,64,66,60,63,7C,00,
-1789522996962849,00000104,false,Rx,0,8,04,7F,00,7F,00,21,0F,00,
-1789522996961868,0000010E,false,Rx,0,8,00,00,00,00,00,00,00,00,
-1789522996957601,00000288,false,Rx,0,5,06,FF,FE,FF,FF,00,00,00,
-1789522996956663,00000288,false,Rx,0,4,08,00,00,00,00,00,00,00,
-1789522996942241,00000280,false,Rx,0,8,14,BB,5C,5D,01,89,9C,00,
-1789522996941089,00000280,false,Rx,0,8,04,4E,F8,00,00,00,00,00,
-1789522996863907,00000102,false,Rx,0,8,00,00,64,66,60,63,7C,00,
-1789522996862925,00000104,false,Rx,0,8,04,7F,00,7F,00,22,10,00,
-1789522996861944,0000010E,false,Rx,0,8,00,00,00,00,00,00,00,00,
-1789522996857592,00000288,false,Rx,0,5,06,FF,FE,FF,FF,00,00,00,
-1789522996856696,00000288,false,Rx,0,4,08,00,00,00,00,00,00,00,
-1789522996841464,00000280,false,Rx,0,8,14,BB,5C,5D,01,88,9C,03,
-1789522996840739,00000280,false,Rx,0,5,10,5C,5D,39,03,00,00,00,
-1789522996763898,00000102,false,Rx,0,8,00,00,64,66,60,63,7B,00,
-1789522996762916,00000104,false,Rx,0,8,04,7F,00,7F,00,23,10,00,
-1789522996761935,0000010E,false,Rx,0,8,00,00,00,00,00,00,00,00,
-1789522996757583,00000288,false,Rx,0,5,06,FF,FE,FF,FF,00,00,00,
-1789522996756644,00000380,false,Rx,0,7,02,00,12,00,00,00,20,00,
-1789522996755962,00000288,false,Rx,0,4,08,00,00,00,00,00,00,00,
-1789522996740687,00000280,false,Rx,0,8,14,BB,5C,5D,01,88,9C,03,
-1789522996739535,00000280,false,Rx,0,8,04,4E,F8,00,00,00,00,00,
-1789522996676902,00000180,false,Rx,0,1,00,00,00,00,00,00,00,00,
-1789522996676176,00000006,false,Rx,0,3,1E,00,00,00,00,00,00,00,
-1789522996675494,00000006,false,Rx,0,3,1E,01,01,00,00,00,00,00,
-1789522996674854,00000006,false,Rx,0,3,1E,02,01,00,00,00,00,00,
-1789522996674171,00000006,false,Rx,0,3,1E,03,78,00,00,00,00,00,
-1789522996663931,00000102,false,Rx,0,8,00,00,64,66,60,63,7C,00,
-1789522996662950,00000104,false,Rx,0,8,04,7F,00,7F,00,24,0F,00,
-1789522996661969,0000010E,false,Rx,0,8,00,00,00,00,00,00,00,00,
-1789522996657617,00000288,false,Rx,0,5,06,10,FF,FF,FF,00,00,00,
-1789522996656678,00000288,false,Rx,0,4,08,00,00,00,00,00,00,00,
-1789522996639825,00000280,false,Rx,0,8,14,BB,5C,5D,01,88,9C,03,
-1789522996638673,00000280,false,Rx,0,8,04,4E,F8,00,00,00,00,00,
-1789522996564093,00000102,false,Rx,0,8,00,00,64,66,60,63,7B,00,
-1789522996563111,00000104,false,Rx,0,8,04,7F,00,7F,00,25,0F,00,
-1789522996562130,0000010E,false,Rx,0,8,00,00,00,00,00,00,00,00,
-1789522996557607,00000288,false,Rx,0,5,06,10,FF,FF,FF,00,00,00,
-1789522996556669,00000288,false,Rx,0,4,08,00,00,00,00,00,00,00,
-1789522996539048,00000280,false,Rx,0,8,14,BB,5C,5D,01,89,9D,00,
-1789522996537896,00000280,false,Rx,0,8,04,4E,F8,00,00,00,00,00,
-1789522996464084,00000102,false,Rx,0,8,00,00,64,66,60,63,7B,00,
-1789522996463145,00000104,false,Rx,0,8,04,7F,00,7F,00,26,10,00,
-1789522996462121,0000010E,false,Rx,0,8,00,00,00,00,00,00,00,00,
-1789522996457598,00000288,false,Rx,0,5,06,10,FF,FF,FF,00,00,00,
-1789522996456446,00000288,false,Rx,0,8,04,00,2F,BA,3D,96,0D,00,
-1789522996455508,00000288,false,Rx,0,7,04,01,19,5E,C3,F2,2E,00,
-1789522996454441,00000288,false,Rx,0,8,04,02,4A,11,2A,2F,0E,00,
-1789522996453502,00000288,false,Rx,0,7,04,03,9E,11,72,15,2E,00,
-1789522996452692,00000288,false,Rx,0,4,08,00,00,00,00,00,00,00,
-1789522996438228,00000280,false,Rx,0,8,14,BB,5C,5D,01,89,9C,00,
-1789522996437119,00000280,false,Rx,0,8,04,4E,F8,00,00,00,00,00,
-1789522996365440,0000030A,false,Rx,0,3,1E,03,78,00,00,00,00,00,
-1789522996364843,00000312,false,Rx,0,3,1E,03,78,00,00,00,00,00,
-1789522996364245,0000031A,false,Rx,0,3,1E,03,78,00,00,00,00,00,
-1789522996363307,00000102,false,Rx,0,8,00,00,64,66,60,63,7C,00,
-1789522996362325,00000104,false,Rx,0,8,04,7F,00,7F,00,27,0F,00,
-1789522996361344,0000010E,false,Rx,0,8,00,00,00,00,00,00,00,00,
-1789522996360405,00000322,false,Rx,0,8,20,02,4A,7D,4A,7D,55,7C,
-1789522996359467,000000D2,false,Rx,0,8,3C,7D,4F,7D,59,67,04,80,
-1789522996358528,000000A2,false,Rx,0,8,55,7C,4A,7D,42,66,04,68,
-1789522996357589,00000328,false,Rx,0,8,20,01,45,7D,4F,7D,3C,7D,
-1789522996356821,00000288,false,Rx,0,5,06,FF,FE,FF,FF,00,00,00,
-1789522996356139,00000288,false,Rx,0,4,08,00,00,00,00,00,00,00,
-1789522996355200,00000330,false,Rx,0,8,20,00,4A,7D,45,7D,37,7D,
-1789522996354261,0000032A,false,Rx,0,8,20,02,3C,7D,3C,7D,4A,7D,
-1789522996353323,00000328,false,Rx,0,8,20,00,45,7D,37,7D,4F,7D,
-1789522996352341,00000320,false,Rx,0,8,20,01,3C,7D,41,7D,3C,7D,
-1789522996351403,00000320,false,Rx,0,8,20,00,32,7D,32,7D,3C,7D,
-1789522996350421,00000330,false,Rx,0,8,20,01,37,7D,41,7D,41,7D,
-1789522996349483,00000332,false,Rx,0,8,20,02,41,7D,41,7D,3C,7D,
-1789522996348885,0000034A,false,Rx,0,3,1E,03,78,00,00,00,00,00,
-1789522996348288,00000342,false,Rx,0,3,1E,03,78,00,00,00,00,00,
-1789522996347691,0000033A,false,Rx,0,3,1E,03,78,00,00,00,00,00,
-1789522996347093,00000332,false,Rx,0,3,1E,03,78,00,00,00,00,00,
-1789522996346496,0000032A,false,Rx,0,3,1E,03,78,00,00,00,00,00,
-1789522996345941,00000322,false,Rx,0,3,1E,03,78,00,00,00,00,00,
-1789522996345344,00000352,false,Rx,0,3,1E,03,78,00,00,00,00,00,
-1789522996344747,0000035A,false,Rx,0,3,1E,03,78,00,00,00,00,00,
-1789522996337451,00000280,false,Rx,0,8,14,BB,5C,5D,01,88,9D,03,
-1789522996336384,00000280,false,Rx,0,8,04,4E,F8,00,00,00,00,00,
-1789522996264121,00000102,false,Rx,0,8,00,00,64,66,60,63,7B,00,
-1789522996263097,00000104,false,Rx,0,8,04,7F,00,7F,00,28,10,00,
-1789522996262115,0000010E,false,Rx,0,8,00,00,00,00,00,00,00,00,
-1789522996257593,00000288,false,Rx,0,5,06,10,FF,FF,FF,00,00,00,
-1789522996256654,00000288,false,Rx,0,4,08,00,00,00,00,00,00,00,
-1789522996236601,00000280,false,Rx,0,8,14,BB,5C,5D,01,88,9C,03,
-1789522996235449,00000280,false,Rx,0,8,04,4E,F8,00,00,00,00,00,
-1789522996163941,00000102,false,Rx,0,8,00,00,64,66,60,63,7B,00,
-1789522996162917,00000104,false,Rx,0,8,04,7F,00,7F,00,29,10,00,
-1789522996161936,0000010E,false,Rx,0,8,00,00,00,00,00,00,00,00,
-1789522996157584,00000288,false,Rx,0,5,06,10,FF,FF,FF,00,00,00,
-1789522996156645,00000288,false,Rx,0,4,08,00,00,00,00,00,00,00,
-1789522996135824,00000280,false,Rx,0,8,14,BB,5C,5D,01,88,9C,03,
-1789522996134672,00000280,false,Rx,0,8,04,4E,F8,00,00,00,00,00,
-1789522996133093,00000006,false,Rx,0,4,25,00,00,00,00,00,00,00,
-1789522996064103,00000102,false,Rx,0,8,00,00,64,66,60,63,7B,00,
-1789522996063121,00000104,false,Rx,0,8,04,7F,00,7F,00,2A,10,00,
-1789522996062140,0000010E,false,Rx,0,8,00,00,00,00,00,00,00,00,
-1789522996057575,00000288,false,Rx,0,5,06,FF,FE,FF,FF,00,00,00,
-1789522996056636,00000288,false,Rx,0,4,08,00,00,00,00,00,00,00,
-1789522996046737,0000010A,false,Rx,0,5,00,00,64,00,00,00,00,00,
-1789522996046012,0000010C,false,Rx,0,3,00,00,00,00,00,00,00,00,
-1789522996035047,00000280,false,Rx,0,8,14,BB,5C,5D,01,89,9C,00,
-1789522996034194,00000280,false,Rx,0,5,06,21,07,C0,19,00,00,00,
-1789522995975016,00000380,false,Rx,0,6,09,35,00,00,1B,04,00,00,
-1789522995964093,00000102,false,Rx,0,8,00,00,64,66,60,63,7B,00,
-1789522995963112,00000104,false,Rx,0,8,04,7F,00,7F,00,2B,10,00,
-1789522995962131,0000010E,false,Rx,0,8,00,00,00,00,00,00,00,00,
-1789522995957566,00000288,false,Rx,0,5,06,FF,FE,FF,FF,00,00,00,
-1789522995956670,00000288,false,Rx,0,4,08,00,00,00,00,00,00,00,
-1789522995934227,00000280,false,Rx,0,8,14,BB,5C,5D,01,89,9D,00,
-1789522995933075,00000280,false,Rx,0,8,04,4E,F8,00,00,00,00,00,
-1789522995876671,00000006,false,Rx,0,3,1E,03,78,00,00,00,00,00,
-1789522995863871,00000102,false,Rx,0,8,00,00,64,66,60,63,7C,00,
-1789522995862890,00000104,false,Rx,0,8,04,7F,00,7F,00,2C,10,00,
-1789522995861866,0000010E,false,Rx,0,8,00,00,00,00,00,00,00,00,
-1789522995857556,00000288,false,Rx,0,5,06,FF,FE,FF,FF,00,00,00,
-1789522995856660,00000288,false,Rx,0,4,08,00,00,00,00,00,00,00,
-1789522995833407,00000280,false,Rx,0,8,14,BB,5C,5D,01,88,9C,03,
-1789522995832682,00000280,false,Rx,0,5,10,5C,5D,39,03,00,00,00,
-1789522995764118,00000102,false,Rx,0,8,00,00,64,66,60,63,7B,00,
-1789522995763137,00000104,false,Rx,0,8,04,7F,00,7F,00,2D,10,00,
-1789522995762155,0000010E,false,Rx,0,8,00,00,00,00,00,00,00,00,
-1789522995757547,00000288,false,Rx,0,5,06,FF,FE,FF,FF,00,00,00,
-1789522995756651,00000288,false,Rx,0,4,08,00,00,00,00,00,00,00,
-1789522995754305,00000380,false,Rx,0,7,02,00,12,00,00,00,24,00,
-1789522995732630,00000280,false,Rx,0,8,14,BB,5C,5D,01,89,9D,00,
-1789522995731478,00000280,false,Rx,0,8,04,4E,F8,00,00,00,00,00,
-1789522995700076,0000030A,false,Rx,0,3,1E,03,78,00,00,00,00,00,
-1789522995699479,00000312,false,Rx,0,3,1E,03,78,00,00,00,00,00,
-1789522995698540,0000030A,false,Rx,0,8,20,02,45,7D,45,7D,41,7D,
-1789522995697559,00000310,false,Rx,0,8,20,01,41,7D,37,7D,37,7D,
-1789522995696620,000000D4,false,Rx,0,8,80,20,80,20,00,41,02,00,
-1789522995695639,000000A4,false,Rx,0,8,00,21,00,21,00,3A,02,00,
-1789522995694658,00000318,false,Rx,0,8,20,01,41,7D,45,7D,41,7D,
-1789522995693719,00000318,false,Rx,0,8,20,00,37,7D,41,7D,3C,7D,
-1789522995692780,00000312,false,Rx,0,8,20,02,2E,7D,37,7D,3C,7D,
-1789522995691842,00000310,false,Rx,0,8,20,00,37,7D,41,7D,37,7D,
-1789522995690860,00000308,false,Rx,0,8,20,01,1F,7D,3C,7D,45,7D,
-1789522995689879,00000308,false,Rx,0,8,20,00,45,7D,45,7D,41,7D,
-1789522995688940,0000031A,false,Rx,0,8,20,02,41,7D,4A,7D,37,7D,
-1789522995688343,0000031A,false,Rx,0,3,1E,03,78,00,00,00,00,00,
-1789522995687746,0000034A,false,Rx,0,3,1E,03,78,00,00,00,00,00,
-1789522995687148,00000342,false,Rx,0,3,1E,03,78,00,00,00,00,00,
-1789522995686551,0000033A,false,Rx,0,3,1E,03,78,00,00,00,00,00,
-1789522995685954,00000332,false,Rx,0,3,1E,03,78,00,00,00,00,00,
-1789522995685399,0000032A,false,Rx,0,3,1E,03,78,00,00,00,00,00,
-1789522995684802,00000322,false,Rx,0,3,1E,03,78,00,00,00,00,00,
-1789522995684204,00000352,false,Rx,0,3,1E,03,78,00,00,00,00,00,
-1789522995683650,0000035A,false,Rx,0,3,1E,03,78,00,00,00,00,00,
-1789522995663895,00000102,false,Rx,0,8,00,00,64,66,60,63,7B,00,
-1789522995662914,00000104,false,Rx,0,8,04,7F,00,7F,00,2E,0F,00,
-1789522995661890,0000010E,false,Rx,0,8,00,00,00,00,00,00,00,00,
-1789522995657581,00000288,false,Rx,0,5,06,FF,FE,FF,FF,00,00,00,
-1789522995656642,00000288,false,Rx,0,4,08,00,00,00,00,00,00,00,
-1789522995631811,00000280,false,Rx,0,8,14,BB,5C,5D,01,89,9C,00,
-1789522995630701,00000280,false,Rx,0,8,04,4E,F8,00,00,00,00,00,
-1789522995563972,00000102,false,Rx,0,8,00,00,64,66,60,63,7B,00,
-1789522995562990,00000104,false,Rx,0,8,04,7F,00,7F,00,2F,10,00,
-1789522995561966,0000010E,false,Rx,0,8,00,00,00,00,00,00,00,00,
-1789522995557572,00000288,false,Rx,0,5,06,FF,FE,FF,FF,00,00,00,
-1789522995556633,00000288,false,Rx,0,4,08,00,00,00,00,00,00,00,
-1789522995531076,00000280,false,Rx,0,8,14,BB,5C,5D,01,88,9C,03,
-1789522995529924,00000280,false,Rx,0,8,04,4E,F8,00,00,00,00,00,
-1789522995463920,00000102,false,Rx,0,8,00,00,64,66,60,63,7B,00,
-1789522995462939,00000104,false,Rx,0,8,04,7F,00,7F,00,20,10,00,
-1789522995461915,0000010E,false,Rx,0,8,00,00,00,00,00,00,00,00,
-1789522995457563,00000288,false,Rx,0,5,06,FF,FE,FF,FF,00,00,00,
-1789522995456411,00000288,false,Rx,0,8,04,00,30,BA,3D,96,0D,00,
-1789522995455472,00000288,false,Rx,0,7,04,01,19,5E,C3,F2,2E,00,
-1789522995454405,00000288,false,Rx,0,8,04,02,84,12,2A,2F,0E,00,
-1789522995453509,00000288,false,Rx,0,7,04,03,88,15,72,15,2E,00,
-1789522995452656,00000288,false,Rx,0,4,08,00,00,00,00,00,00,00,
-1789522995430171,00000280,false,Rx,0,8,14,BB,5C,5D,01,89,9C,00,
-1789522995429062,00000280,false,Rx,0,8,04,4E,F8,00,00,00,00,00,
-1789522995364081,00000102,false,Rx,0,8,00,00,64,66,60,63,7C,00,
-1789522995363100,00000104,false,Rx,0,8,04,7F,00,7F,00,21,10,00,
-1789522995362119,0000010E,false,Rx,0,8,00,00,00,00,00,00,00,00,
-1789522995357554,00000288,false,Rx,0,5,06,10,FF,FF,FF,00,00,00,
-1789522995356658,00000288,false,Rx,0,4,08,00,00,00,00,00,00,00,
-1789522995329437,00000280,false,Rx,0,8,14,BB,5C,5D,01,89,9C,00,
-1789522995328327,00000280,false,Rx,0,8,04,4E,F8,00,00,00,00,00,
-1789522995264112,00000102,false,Rx,0,8,00,00,64,66,60,63,7C,00,
-1789522995263131,00000104,false,Rx,0,8,04,7F,00,7F,00,22,10,00,
-1789522995262150,0000010E,false,Rx,0,8,00,00,00,00,00,00,00,00,
-1789522995257627,00000288,false,Rx,0,5,06,10,FF,FF,FF,00,00,00,
-1789522995256688,00000288,false,Rx,0,4,08,00,00,00,00,00,00,00,
-1789522995228657,00000280,false,Rx,0,8,14,BB,5C,5D,01,88,9D,03,
-1789522995227633,00000280,false,Rx,0,8,04,4E,F8,00,00,00,00,00,
-1789522995163975,00000102,false,Rx,0,8,00,00,64,66,60,63,7B,00,
-1789522995162994,00000104,false,Rx,0,8,04,7F,00,7F,00,23,0F,00,
-1789522995162013,0000010E,false,Rx,0,8,00,00,00,00,00,00,00,00,
-1789522995157618,00000288,false,Rx,0,5,06,10,FF,FF,FF,00,00,00,
-1789522995156679,00000288,false,Rx,0,4,08,00,00,00,00,00,00,00,
-1789522995127880,00000280,false,Rx,0,8,14,BB,5C,5D,01,89,9C,00,
-1789522995126771,00000280,false,Rx,0,8,04,4E,F8,00,00,00,00,00,
-1789522995064009,00000102,false,Rx,0,8,00,00,64,66,60,63,7B,00,
-1789522995063028,00000104,false,Rx,0,8,04,7F,00,7F,00,24,10,00,
-1789522995062046,0000010E,false,Rx,0,8,00,00,00,00,00,00,00,00,
-1789522995057609,00000288,false,Rx,0,5,06,10,FF,FF,FF,00,00,00,
-1789522995056713,00000288,false,Rx,0,4,08,00,00,00,00,00,00,00,
-1789522995054750,00000006,false,Rx,0,4,25,00,00,00,00,00,00,00,
-1789522995034185,00000308,false,Rx,0,8,20,00,45,7D,45,7D,3C,7D,
-1789522995033417,0000010A,false,Rx,0,5,00,00,64,00,00,00,00,00,
-1789522995032436,00000308,false,Rx,0,8,20,01,1F,7D,3C,7D,4A,7D,
-1789522995031625,000000D8,false,Rx,0,6,37,7D,04,4F,7D,00,00,00,
-1789522995030815,000000A8,false,Rx,0,6,37,7D,01,4F,7D,02,00,00,
-1789522995030217,0000010C,false,Rx,0,3,00,00,00,00,00,00,00,00,
-1789522995029279,0000030A,false,Rx,0,8,20,02,41,7D,4A,7D,41,7D,
-1789522995028340,00000310,false,Rx,0,8,20,01,3C,7D,3C,7D,32,7D,
-1789522995027359,00000318,false,Rx,0,8,20,00,37,7D,41,7D,3C,7D,
-1789522995026420,00000280,false,Rx,0,8,14,BB,5C,5D,01,89,9D,00,
-1789522995025481,00000312,false,Rx,0,8,20,02,32,7D,32,7D,41,7D,
-1789522995024713,00000280,false,Rx,0,5,06,21,07,C0,19,00,00,00,
-1789522995023775,00000310,false,Rx,0,8,20,00,37,7D,41,7D,37,7D,
-1789522995022793,00000318,false,Rx,0,8,20,01,41,7D,4A,7D,41,7D,
-1789522995021855,0000031A,false,Rx,0,8,20,02,41,7D,4A,7D,32,7D,
-1789522994972106,00000380,false,Rx,0,6,09,35,00,00,1B,04,00,00,
-1789522994963914,00000102,false,Rx,0,8,00,00,64,66,60,63,7C,00,
-1789522994962976,00000104,false,Rx,0,8,04,7F,00,7F,00,25,10,00,
-1789522994961994,0000010E,false,Rx,0,8,00,00,00,00,00,00,00,00,
-1789522994957600,00000288,false,Rx,0,5,06,10,FF,FF,FF,00,00,00,
-1789522994956704,00000288,false,Rx,0,4,08,00,00,00,00,00,00,00,
-1789522994926283,00000280,false,Rx,0,8,14,BB,5C,5D,01,89,9D,00,
-1789522994925131,00000280,false,Rx,0,8,04,4E,F8,00,00,00,00,00,
-1789522994864033,00000102,false,Rx,0,8,00,00,64,66,60,63,7B,00,
-1789522994863052,00000104,false,Rx,0,8,04,7F,00,7F,00,26,0F,00,
-1789522994862071,0000010E,false,Rx,0,8,00,00,00,00,00,00,00,00,
-1789522994857633,00000288,false,Rx,0,5,06,10,FF,FF,FF,00,00,00,
-1789522994856695,00000288,false,Rx,0,4,08,00,00,00,00,00,00,00,
-1789522994825463,00000280,false,Rx,0,8,14,BB,5C,5D,01,89,9C,00,
-1789522994824439,00000280,false,Rx,0,8,04,4E,F8,00,00,00,00,00,
-1789522994763939,00000102,false,Rx,0,8,00,00,64,66,60,63,7B,00,
-1789522994763000,00000104,false,Rx,0,8,04,7F,00,7F,00,27,10,00,
-1789522994761976,0000010E,false,Rx,0,8,00,00,00,00,00,00,00,00,
-1789522994757582,00000288,false,Rx,0,5,06,FF,FE,FF,FF,00,00,00,
-1789522994756686,00000288,false,Rx,0,4,08,00,00,00,00,00,00,00,
-1789522994751352,00000380,false,Rx,0,7,02,00,12,00,00,00,28,00,
-1789522994724729,00000280,false,Rx,0,8,14,BB,5C,5D,01,89,9C,00,
-1789522994723662,00000280,false,Rx,0,8,04,4E,F8,00,00,00,00,00,
-1789522994664015,00000102,false,Rx,0,8,00,00,64,66,60,63,7B,00,
-1789522994663034,00000104,false,Rx,0,8,04,7F,00,7F,00,28,0F,00,
-1789522994662052,0000010E,false,Rx,0,8,00,00,00,00,00,00,00,00,
-1789522994657615,00000288,false,Rx,0,5,06,FF,FE,FF,FF,00,00,00,
-1789522994656677,00000288,false,Rx,0,4,08,00,00,00,00,00,00,00,
-1789522994623909,00000280,false,Rx,0,8,14,BB,5C,5D,01,88,9D,03,
-1789522994623141,00000280,false,Rx,0,5,10,5C,5D,39,03,00,00,00,
-1789522994564049,00000102,false,Rx,0,8,00,00,64,66,60,63,7B,00,
-1789522994563067,00000104,false,Rx,0,8,04,7F,00,7F,00,29,0F,00,
-1789522994562086,0000010E,false,Rx,0,8,00,00,00,00,00,00,00,00,
-1789522994557606,00000288,false,Rx,0,5,06,FF,FE,FF,FF,00,00,00,
-1789522994556710,00000288,false,Rx,0,4,08,00,00,00,00,00,00,00,
-1789522994523089,00000280,false,Rx,0,8,14,BB,5C,5D,01,89,9C,00,
-1789522994521937,00000280,false,Rx,0,8,04,4E,F8,00,00,00,00,00,
-1789522994463954,00000102,false,Rx,0,8,00,00,64,66,60,63,7B,00,
-1789522994463016,00000104,false,Rx,0,8,04,7F,00,7F,00,2A,0F,00,
-1789522994461992,0000010E,false,Rx,0,8,00,00,00,00,00,00,00,00,
-1789522994457597,00000288,false,Rx,0,5,06,FF,FE,FF,FF,00,00,00,
-1789522994456445,00000288,false,Rx,0,8,04,00,31,BA,3D,96,0D,00,
-1789522994455549,00000288,false,Rx,0,7,04,01,19,5E,C3,F2,2E,00,
-1789522994454482,00000288,false,Rx,0,8,04,02,B9,13,2A,2F,0E,00,
-1789522994453544,00000288,false,Rx,0,7,04,03,63,19,72,15,2E,00,
-1789522994452690,00000288,false,Rx,0,4,08,00,00,00,00,00,00,00,
-1789522994422270,00000280,false,Rx,0,8,14,BB,5C,5D,01,89,9C,00,
-1789522994421160,00000280,false,Rx,0,8,04,4E,F8,00,00,00,00,00,
-1789522994368809,00000320,false,Rx,0,8,20,00,32,7D,32,7D,3C,7D,
-1789522994367870,00000320,false,Rx,0,8,20,01,3C,7D,41,7D,3C,7D,
-1789522994366889,00000322,false,Rx,0,8,20,02,4A,7D,4A,7D,55,7C,
-1789522994365993,000000DA,false,Rx,0,8,37,7D,4F,7D,6B,67,04,04,
-1789522994365054,000000AA,false,Rx,0,8,37,7D,4F,7D,58,67,04,21,
-1789522994364116,00000102,false,Rx,0,8,00,00,64,66,60,63,7B,00,
-1789522994363177,00000104,false,Rx,0,8,04,7F,00,7F,00,2B,0F,00,
-1789522994362153,0000010E,false,Rx,0,8,00,00,00,00,00,00,00,00,
-1789522994361214,00000328,false,Rx,0,8,20,01,45,7D,4F,7D,3C,7D,
-1789522994360276,00000330,false,Rx,0,8,20,00,45,7D,45,7D,37,7D,
-1789522994359337,0000032A,false,Rx,0,8,20,02,3C,7D,3C,7D,45,7D,
-1789522994358399,00000328,false,Rx,0,8,20,00,45,7D,37,7D,4F,7D,
-1789522994357417,00000330,false,Rx,0,8,20,01,3C,7D,41,7D,41,7D,
-1789522994356649,00000288,false,Rx,0,5,06,FF,FE,FF,FF,00,00,00,
-1789522994355711,00000332,false,Rx,0,8,20,02,41,7D,41,7D,3C,7D,
-1789522994354985,00000288,false,Rx,0,4,08,00,00,00,00,00,00,00,
-1789522994321492,00000280,false,Rx,0,8,14,BB,5C,5D,01,88,9D,03,
-1789522994320468,00000280,false,Rx,0,8,04,4E,F8,00,00,00,00,00,
-1789522994264041,00000102,false,Rx,0,8,00,00,64,66,60,63,7C,00,
-1789522994263103,00000104,false,Rx,0,8,04,7F,00,7F,00,2C,10,00,
-1789522994262079,0000010E,false,Rx,0,8,00,00,00,00,00,00,00,00,
-1789522994257641,00000288,false,Rx,0,5,06,FF,FE,FF,FF,00,00,00,
-1789522994256703,00000288,false,Rx,0,4,08,00,00,00,00,00,00,00,
-1789522994220693,00000280,false,Rx,0,8,14,BB,5C,5D,01,88,9D,03,
-1789522994219626,00000280,false,Rx,0,8,04,4E,F8,00,00,00,00,00,
-1789522994164203,00000102,false,Rx,0,8,00,00,64,66,60,63,7C,00,
-1789522994163264,00000104,false,Rx,0,8,04,7F,00,7F,00,2D,0F,00,
-1789522994162240,0000010E,false,Rx,0,8,00,00,00,00,00,00,00,00,
-1789522994157632,00000288,false,Rx,0,5,06,FF,FE,FF,FF,00,00,00,
-1789522994156736,00000288,false,Rx,0,4,08,00,00,00,00,00,00,00,
-1789522994119916,00000280,false,Rx,0,8,14,BB,5C,5D,01,89,9C,00,
-1789522994118806,00000280,false,Rx,0,8,04,4E,F8,00,00,00,00,00,
-1789522994064066,00000102,false,Rx,0,8,00,00,64,66,60,63,7B,00,
-1789522994063084,00000104,false,Rx,0,8,04,7F,00,7F,00,2E,0F,00,
-1789522994062060,0000010E,false,Rx,0,8,00,00,00,00,00,00,00,00,
-1789522994057623,00000288,false,Rx,0,5,06,10,FF,FF,FF,00,00,00,
-1789522994056727,00000288,false,Rx,0,4,08,00,00,00,00,00,00,00,
-1789522994026818,0000010A,false,Rx,0,5,00,00,64,00,00,00,00,00,
-1789522994026093,0000010C,false,Rx,0,3,00,00,00,00,00,00,00,00,
-1789522994019138,00000280,false,Rx,0,8,14,BB,5C,5D,01,89,9C,00,
-1789522994018115,00000280,false,Rx,0,8,04,4E,F8,00,00,00,00,00,
-1789522994015043,00000006,false,Rx,0,4,25,00,00,00,00,00,00,00,
-1789522993969006,00000380,false,Rx,0,6,09,35,00,00,1B,04,00,00,
-1789522993964099,00000102,false,Rx,0,8,00,00,64,66,60,63,7B,00,
-1789522993963118,00000104,false,Rx,0,8,04,7F,00,7F,00,2F,0F,00,
-1789522993962137,0000010E,false,Rx,0,8,00,00,00,00,00,00,00,00,
-1789522993957614,00000288,false,Rx,0,5,06,FF,FE,FF,FF,00,00,00,
-1789522993956718,00000288,false,Rx,0,4,08,00,00,00,00,00,00,00,
-1789522993918319,00000280,false,Rx,0,8,14,BB,5C,5D,01,89,9C,00,
-1789522993917465,00000280,false,Rx,0,5,06,21,07,C0,19,00,00,00,
-1789522993858800,00000102,false,Rx,0,8,00,00,64,66,60,63,7C,00,
-1789522993857818,00000104,false,Rx,0,8,04,7F,00,7F,00,20,10,00,
-1789522993856794,0000010E,false,Rx,0,8,00,00,00,00,00,00,00,00,
-1789522993856069,00000288,false,Rx,0,5,06,10,FF,FF,FF,00,00,00,
-1789522993855386,00000288,false,Rx,0,4,08,00,00,00,00,00,00,00,
-1789522993817542,00000280,false,Rx,0,8,14,BB,5C,5D,01,88,9D,03,
-1789522993816475,00000280,false,Rx,0,8,04,4E,F8,00,00,00,00,00,
-1789522993764081,00000102,false,Rx,0,8,00,00,64,66,60,63,7B,00,
-1789522993763142,00000104,false,Rx,0,8,04,7F,00,7F,00,21,0F,00,
-1789522993762119,0000010E,false,Rx,0,8,00,00,00,00,00,00,00,00,
-1789522993757639,00000288,false,Rx,0,5,06,10,FF,FF,FF,00,00,00,
-1789522993756700,00000288,false,Rx,0,4,08,00,00,00,00,00,00,00,
-1789522993748295,00000380,false,Rx,0,7,02,00,12,00,00,00,2C,00,
-1789522993716765,00000280,false,Rx,0,8,14,BB,5C,5D,01,89,9C,00,
-1789522993715613,00000280,false,Rx,0,8,04,4E,F8,00,00,00,00,00,
-1789522993703495,00000308,false,Rx,0,8,20,00,45,7D,45,7D,41,7D,
-1789522993702514,00000308,false,Rx,0,8,20,01,1B,7D,3C,7D,4A,7D,
-1789522993701575,0000030A,false,Rx,0,8,20,02,45,7D,45,7D,3C,7D,
-1789522993700637,000000AC,false,Rx,0,8,00,21,00,21,00,3A,02,00,
-1789522993699613,000000DC,false,Rx,0,8,80,1E,80,1E,00,49,02,00,
-1789522993698674,00000312,false,Rx,0,8,20,02,2E,7D,37,7D,3C,7D,
-1789522993697736,00000318,false,Rx,0,8,20,00,3C,7D,41,7D,41,7D,
-1789522993696754,00000310,false,Rx,0,8,20,01,41,7D,37,7D,37,7D,
-1789522993695816,00000310,false,Rx,0,8,20,00,3C,7D,41,7D,37,7D,
-1789522993694834,00000318,false,Rx,0,8,20,01,41,7D,4A,7D,41,7D,
-1789522993693896,0000031A,false,Rx,0,8,20,02,41,7D,4A,7D,37,7D,
-1789522993663987,00000102,false,Rx,0,8,00,00,64,66,60,63,7B,00,
-1789522993663005,00000104,false,Rx,0,8,04,7F,00,7F,00,22,0F,00,
-1789522993661981,0000010E,false,Rx,0,8,00,00,00,00,00,00,00,00,
-1789522993657629,00000288,false,Rx,0,5,06,10,FF,FF,FF,00,00,00,
-1789522993656733,00000288,false,Rx,0,4,08,00,00,00,00,00,00,00,
-1789522993615902,00000280,false,Rx,0,8,14,BB,5C,5D,01,89,9C,00,
-1789522993615049,00000280,false,Rx,0,5,10,5C,5D,39,03,00,00,00,
-1789522993564234,00000102,false,Rx,0,8,00,00,64,66,60,63,7C,00,
-1789522993563252,00000104,false,Rx,0,8,04,7F,00,7F,00,23,10,00,
-1789522993562271,0000010E,false,Rx,0,8,00,00,00,00,00,00,00,00,
-1789522993557620,00000288,false,Rx,0,5,06,FF,FE,FF,FF,00,00,00,
-1789522993556724,00000288,false,Rx,0,4,08,00,00,00,00,00,00,00,
-1789522993515125,00000280,false,Rx,0,8,14,BB,5C,5D,01,89,9C,00,
-1789522993513973,00000280,false,Rx,0,8,04,4E,F8,00,00,00,00,00,
-1789522993464139,00000102,false,Rx,0,8,00,00,64,66,60,63,7B,00,
-1789522993463115,00000104,false,Rx,0,8,04,7F,00,7F,00,24,0F,00,
-1789522993462134,0000010E,false,Rx,0,8,00,00,00,00,00,00,00,00,
-1789522993457611,00000288,false,Rx,0,5,06,FF,FE,FF,FF,00,00,00,
-1789522993456502,00000288,false,Rx,0,8,04,00,32,BA,3D,96,0D,00,
-1789522993455563,00000288,false,Rx,0,7,04,01,19,5E,C3,F2,2E,00,
-1789522993454497,00000288,false,Rx,0,8,04,02,ED,14,2A,2F,0E,00,
-1789522993453558,00000288,false,Rx,0,7,04,03,3A,1D,72,15,2E,00,
-1789522993452705,00000288,false,Rx,0,4,08,00,00,00,00,00,00,00,
-1789522993414348,00000280,false,Rx,0,8,14,BB,5C,5D,01,88,9C,03,
-1789522993413196,00000280,false,Rx,0,8,04,4E,F8,00,00,00,00,00,
-1789522993364087,00000102,false,Rx,0,8,00,00,64,66,60,63,7C,00,
-1789522993363106,00000104,false,Rx,0,8,04,7F,00,7F,00,25,10,00,
-1789522993362125,0000010E,false,Rx,0,8,00,00,00,00,00,00,00,00,
-1789522993357645,00000288,false,Rx,0,5,06,10,FF,FF,FF,00,00,00,
-1789522993356706,00000288,false,Rx,0,4,08,00,00,00,00,00,00,00,
-1789522993313528,00000280,false,Rx,0,8,14,BB,5C,5D,01,89,9C,00,
-1789522993312419,00000280,false,Rx,0,8,04,4E,F8,00,00,00,00,00,
-1789522993264020,00000102,false,Rx,0,8,00,00,64,66,60,63,7B,00,
-1789522993263081,00000104,false,Rx,0,8,04,7F,00,7F,00,26,10,00,
-1789522993262100,0000010E,false,Rx,0,8,00,00,00,00,00,00,00,00,
-1789522993257620,00000288,false,Rx,0,5,06,10,FF,FF,FF,00,00,00,
-1789522993256724,00000288,false,Rx,0,4,08,00,00,00,00,00,00,00,
-1789522993212735,00000280,false,Rx,0,8,14,BB,5C,5D,01,89,9C,00,
-1789522993211583,00000280,false,Rx,0,8,04,4E,F8,00,00,00,00,00,
-1789522993164224,00000102,false,Rx,0,8,00,00,64,66,60,63,7B,00,
-1789522993163285,00000104,false,Rx,0,8,04,7F,00,7F,00,27,0F,00,
-1789522993162261,0000010E,false,Rx,0,8,00,00,00,00,00,00,00,00,
-1789522993157611,00000288,false,Rx,0,5,06,10,FF,FF,FF,00,00,00,
-1789522993156715,00000288,false,Rx,0,4,08,00,00,00,00,00,00,00,
-1789522993111873,00000280,false,Rx,0,8,14,BB,5C,5D,01,89,9C,00,
-1789522993110721,00000280,false,Rx,0,8,04,4E,F8,00,00,00,00,00,
-1789522993064257,00000102,false,Rx,0,8,00,00,64,66,60,63,7C,00,
-1789522993063276,00000104,false,Rx,0,8,04,7F,00,7F,00,28,0F,00,
-1789522993062295,0000010E,false,Rx,0,8,00,00,00,00,00,00,00,00,
-1789522993057644,00000288,false,Rx,0,5,06,10,FF,FF,FF,00,00,00,
